
14:31:36.246 设备接收:08 03 24 43 63 C3 45 43 63 CA 80 43 64 02 10 00 00 00 00 00 00 00 00 00 00 00 00 3E 01 02 2E 3E 20 C0 80 46 A4 10 00 04 20

14:31:36.760 设备接收:00 00 00 00 00 00

14:31:36.771 设备发送:09 03 40 01 00 12 80 8F

14:31:37.272 设备接收:09 03 24 43 63 C0 C5 43 63 A6 26 43 64 24 19 00 00 00 00 00 00 00 00 00 00 00 00 BE BD 70 A4 BD 5D 2F 1B C7 10 88 00 80 08

14:31:37.312 设备发送:09 01 00 01 00 02 ED 43

14:31:37.824 设备接收:09 01 01 00 53 E8

14:31:37.824 设备接收:09 01 01 00 53 E8 ED 5E

14:31:38.334 设备接收:08 03 24 43 63 88 15 43 63 B8 82 43 64 20 00 00 00 00 00 00 00 00 00 00 00 00 00 3C 84 24 D4 3C 50 04 08 46 00 80 00 00 18

14:31:38.350 设备发送:08 01 00 01 00 02 EC 92

14:31:38.844 设备接收:00 00 00 00 00 00

14:31:38.859 设备发送:09 03 40 01 00 12 80 8F

14:31:39.370 设备接收:09 03 24 43 63 B6 46 43 63 A0 84 43 64 1A 5F 00 00 00 00 00 00 00 00 00 00 00 00 BE D8 93 75 3E A2 4D D3 C7 25 3C 00 29 81

14:31:39.383 设备发送:09 01 00 01 00 02 ED 43

14:31:39.896 设备接收:09 01 01 00 53 E8

14:31:39.912 设备发送:08 03 40 01 00 12 81 5E

14:31:40.390 设备接收:00 02 00 02 42 80 26 02 42 00 90 02 42 C2 10 00 00 00 00 00 00 00 00 00 00 00 00 3C 00 F4 C4 38 10 2C 10 04 80 00 00 80 20

14:31:40.430 设备发送:08 01 00 01 00 02 EC 92

14:31:40.929 设备接收:08 01 01 02 00 52 14 08 81 01 51 92

14:31:40.948 设备发送:09 03 40 01 00 12 80 8F

14:31:41.462 设备接收:09 03 24 43 63 B6 88 43 63 C3 96 43 64 34 3A 00 00 00 00 00 00 00 00 00 00 00 00 BE D8 93 75 3D D7 0A 3E C7 25 3C 00 27 10

14:31:41.474 设备发送:09 01 00 01 00 02 ED 43

14:31:41.971 设备接收:09 01 01 00 53 E8

14:31:42.001 设备发送:08 03 40 01 00 12 81 5E

14:31:42.492 设备接收:00 02 00 02 42 14 68 02 42 80 02 02 40 00 C4 00 00 00 00 00 00 00 00 00 00 00 00 3C 40 10 02 3C 44 0A 26 04 A4 C0 00 20 30

14:31:42.508 设备发送:08 01 00 01 00 02 EC 92

14:31:43.007 设备接收:08 01 01 00 52 14

14:31:43.018 设备发送:09 03 40 01 00 12 80 8F

14:31:43.560 设备发送:09 01 00 01 00 02 ED 43

14:31:43.560 设备接收:09 03 24 43 63 D8 53 43 63 DC EE 43 64 3E 77 00 00 00 00 00 00 00 00 00 00 00 00 BE A2 4D D3 3E 87 2B 02 C6 F7 A8 00 40 F4

14:31:44.056 设备接收:09 01 01 00 53 E8

14:31:44.078 设备发送:08 03 40 01 00 12 81 5E

14:31:44.563 设备接收:08 03 24 43 63 D8 11 01 00 24 02 48 09 0D 00 00 00 00 00 00 00 00 00 00 00 68 C0 AD 00 00 00 00 4B 6D

14:31:44.583 设备发送:08 01 00 01 00 02 EC 92

14:31:45.122 设备发送:08 01 00 01 00 02 EC 92

14:31:45.636 设备发送:08 01 00 01 00 02 EC 92

14:31:46.141 设备发送:09 03 40 01 00 12 80 8F

14:31:46.653 设备接收:08 01 01 00 52 14 08 01 01 00 52 14 08 81 00 90 52 08 81 01 51 92 08 81 01 51 92 08 81 01 51 92 08 81 01 51 92 08 81 01 51 92 08 81 01 51 92 08 81 01 51 92 08 81 01 51 92 08 81 01 51 92 08 81 01 51 92 08 81 01 51 92 08 81 01 51 92 08 81 01 51 92 08 81 01 51 92 08 81 01 51 92 08 81 01 51 92 08 81 01 51 92 08 81 01 51 92 08 81 01 51 92 08 81 01 51 92 08 81 01 51 92 08 81 01 51 92 08 81 01 51 92 08 81 01 51 92 08 81 01 51 92 08 81 01 51 92 08 81 01

14:31:46.668 设备发送:09 01 00 01 00 02 ED 43

14:31:47.175 设备接收:51 92 08 81 01 51 92 08 81 01 51 92 08 81 01 51 92 08 01 01 00 52 14 08 81 00 90 52 08 81 01 51 92 08 81 01 51 92 08 81 01 51 92 08 81 01 51 92 08 81 01 51 92 08 81 01 51 92 08 81 01 51 92 08 81 01 51 92 08 81 01 51 92 08 81 01 51 92 08 81 01 51 92 08 81 01 51 92 08 81 01 51 92 08 81 01 51 92 08 81 01 51 92 08 81 01 51 92 08 81 01 51 92 08 81 01 51 92 08 81 01 51 92 08 81 01 51 92 08 81 01 51 92 08 81 01 51 92 08 81 01 51 92 08 81 01 51 92 08 81

14:31:47.187 设备发送:08 03 40 01 00 12 81 5E

14:31:47.706 设备发送:08 01 00 01 00 02 EC 92 08 81 01 51 92 08 81 01 51 92 08 81 01 51 92 08 81 01 51 92 08 81 01 51 92 FF FF 6F FF FF FF FF FF FF FF FF FF FF FF 3F 58 01 51 92 08 81 01 51 92 08 81 01 51 92 08 81 01 51 92 08 81 01 51 92 08 81 01 51 92 08 81 01 51 92 08 81 01 51 92 08 81 01 51 92 08 81 01 51 92 08 81 01 51 92 08 81 01 51 92 08 81 01 51 92 08 81 01 51 92 08 81 01 51 92 08 81 01 51 92 08 81 01 51 92 08 81 01 51 92 08 81 01 51 92 08 81 01 51 92 08 81 01

14:31:47.706 设备发送:08 01 00 01 00 02 EC 92

14:31:48.222 设备接收:51 92 08 81 01 51 92 08 81 01 51 92 08 81 01 51 92 08 81 01 51 92 08 81 01 51 92 08 81 01 51 92 08 81 01 51 92 08 81 01 51 92 08 81 01 51 92 08 81 01 51 92 08 81 01 51 92 08 81 01 51 92 08 81 01 51 92 08 81 01 51 92 08 FB BF F5 09 01 01 00 53 E8 08 03 24 43 60 08 90 43 60 00 84 43 64 42 E2 00 00 00 00 00 00 00 00 00 00 00 00 3C 00 C8 C0 3E 00 00 41 44 A2 80 00 21 44 00 00 00 00 00 00

14:31:48.246 设备发送:09 03 40 01 00 12 80 8F

14:31:48.737 设备接收:09 03 24 43 63 B4 3A 43 63 A1 48 43 64 11 AB 00 00 00 00 00 00 00 00 00 00 00 00 BE A2 4D D3 3D D7 0A 3E C6 F7 A8 00 1F 8F

14:31:48.751 设备发送:09 01 00 01 00 02 ED 43

14:31:49.247 设备接收:09 01 01 00 53 E8

14:31:49.277 设备发送:08 03 40 01 00 12 81 5E

14:31:49.761 设备接收:08 03 24 43 63 98 53 00 02 08 86 42 40 02 80 00 00 00 00 00 00 00 00 00 00 00 00 00 00 00 00 00 00 00 08 42 10 00 00 28 10 3E 46 76 E0 00 CA E1

14:31:49.804 设备发送:08 01 00 01 00 02 EC 92

14:31:50.317 设备发送:08 01 00 01 00 02 EC 92

14:31:50.841 设备发送:08 01 00 01 00 02 EC 92

14:31:51.346 设备发送:09 03 40 01 00 12 80 8F

14:31:51.855 设备接收:08 01 01 00 52 14 08 01 01 00 52 14 08 81 00 90 52 08 81 01 51 92 08 81 01 51 92 08 81 01 51 92 08 81 01 51 92 08 81 01 51 92 08 81 01 51 92 08 81 01 51 92 08 81 01 51 92 08 81 01 51 92 08 81 01 51 92 08 81 01 51 92 08 81 01 51 92 08 81 01 51 92 08 81 01 51 92 08 81 01 51 92 08 81 01 51 92 08 81 01 51 92 08 81 01 51 92 08 81 01 51 92 08 81 01 51 92 08 81 01 51 92 08 81 01 51 92 08 81 01 51 92 08 81 01 51 92 08 81 01 51 92 08 81 01 51 92 08 81 01

14:31:51.880 设备发送:09 01 00 01 00 02 ED 43

14:31:52.379 设备接收:51 92 08 81 01 51 92 08 81 01 51 92 08 81 01 51 92 08 01 01 00 52 14 08 81 00 90 52 08 81 01 51 92 08 81 01 51 92 08 81 01 51 92 08 81 01 51 92 08 81 01 51 92 08 81 01 51 92 08 81 01 51 92 08 81 01 51 92 08 81 01 51 92 08 81 01 51 92 08 81 01 51 92 08 81 01 51 92 08 81 01 51 92 08 81 01 51 92 08 81 01 51 92 08 81 01 51 92 08 81 01 51 92 08 81 01 51 92 08 81 01 51 92 08 81 01 51 92 08 81 01 51 92 08 81 01 51 92 08 81 01 51 92 08 81 01 51 92 08 81

14:31:52.399 设备发送:08 03 40 01 00 12 81 5E

14:31:52.901 设备接收:01 51 92 08 81 01 51 92 08 81 01 51 92 08 81 01 51 92 08 81 01 51 92 08 81 01 51 92 08 81 01 51 92 FF FF FF FF D2 08 81 01 51 92 08 81 01 51 92 08 81 01 51 92 08 81 01 51 92 08 81 01 51 92 08 81 01 51 92 08 81 01 51 92 08 81 01 51 92 08 81 01 51 92 08 81 01 51 92 08 81 01 51 92 08 81 01 51 92 08 81 01 51 92 08 81 01 51 92 08 81 01 51 92 08 81 01 51 92 08 81 01 51 92 08 81 01 51 92 08 81 01 51 92 08 81 01 51 92 08 81 01 51 92 08 81 01 51 92 08 81

14:31:52.928 设备发送:08 01 00 01 00 02 EC 92

14:31:53.418 设备接收:01 51 92 08 81 01 51 92 08 81 01 51 92 08 81 01 51 92 08 81 01 51 92 08 81 01 51 92 08 81 01 51 92 08 81 01 51 92 08 81 01 51 92 08 81 01 51 92 08 81 01 51 92 FE FF FF DF 09 01 01 00 53 E8 08 03 04 40 24 43 62 84 D0 62 08 94 40 00 00 00 00 00 2C 84 24 4E 5C 20 01 98 00 18 05 97 E2 08 83 01 50 F2 08 83 01 50 F2 08 83 01 50 F2 08 83 01 50 F2 08 83 01 50 F2 08 83 01 50 F2 08 83 01 50 F2 08 83 01 50 F2 08 83 01 50 F2 08 83 01 50 F2 08 83 01 50 F2 08

14:31:53.428 设备发送:09 03 40 01 00 12 80 8F

14:31:53.940 设备接收:83 01 50 F2 08 83 01 50 F2 08 83 01 50 F2 08 83 01 50 F2 08 83 01 50 F2 08 83 01 50 F2 08 83 01 50 F2 08 83 01 50 F2 08 83 01 50 F2 08 83 01 50 F2 08 83 01 50 F2 08 83 01 50 F2 08 83 01 50 F2 08 83 01 50 F2 08 83 01 50 F2 08 83 01 50 F2 FD FF FB 6F 08 81 01 50 02 51 92 09 03 24 43 63 F0 E6 43 63 F1 28 43 64 5F 3C 00 00 00 00 00 00 00 00 00 00 00 00 BE A2 4D D3 3D 54 FD F4 C6 F7 A8 00 9E D5

14:31:53.961 设备发送:09 01 00 01 00 02 ED 43

14:31:54.457 设备接收:09 01 01 00 53 E8

14:31:54.465 设备发送:08 03 40 01 00 12 81 5E

14:31:54.966 设备接收:00 02 00 02 44 00 02 02 42 FA 00 02 40 20 50 00 00 00 00 00 00 00 00 00 00 00 00 3C 20 0A 80 3C A0 00 C0 06 40 E0 00 40 02

14:31:54.996 设备发送:08 01 00 01 00 02 EC 92

14:31:55.509 设备接收:00 00 00 00 00 00

14:31:55.524 设备发送:09 03 40 01 00 12 80 8F

14:31:56.018 设备接收:09 03 24 43 63 F1 EC 43 63 FA E2 43 64 5C 2A 00 00 00 00 00 00 00 00 00 00 00 00 BE D8 93 75 BE 57 0A 3E C7 25 3C 00 0F D1

14:31:56.033 设备发送:09 01 00 01 00 02 ED 43

14:31:56.538 设备接收:09 01 01 00 53 E8

14:31:56.558 设备发送:08 03 40 01 00 12 81 5E

14:31:57.064 设备接收:00 00 00 00 00 40 C0 00 00 00 40 00 00 28 3C 00 00 00 00 00 00 00 00 00 00 00 00 38 00 00 00 38 04 04 00 00 04 00 00 04 8C

14:31:57.082 设备发送:08 01 00 01 00 02 EC 92

14:31:57.571 设备接收:00 00 00 00 00 00

14:31:57.595 设备发送:09 03 40 01 00 12 80 8F

14:31:58.100 设备接收:09 03 24 43 63 C4 5B 43 63 C0 01 43 64 30 21 00 00 00 00 00 00 00 00 00 00 00 00 BE F3 33 34 3E 57 0A 3E C7 39 8C 00 25 1D

14:31:58.103 设备发送:09 01 00 01 00 02 ED 43

14:31:58.609 设备接收:09 01 01 00 53 E8

14:31:58.624 设备发送:08 03 40 01 00 12 81 5E

14:31:59.135 设备接收:00 02 00 02 44 02 00 02 40 00 84 02 40 28 28 00 00 00 00 00 00 00 00 00 00 00 00 3C 08 00 88 3A 20 04 10 04 00 20 00 A4 60

14:31:59.165 设备发送:08 01 00 01 00 02 EC 92

14:31:59.653 设备接收:08 01 01 00 00 00 00 52 14 08 81 01 51 92

14:31:59.674 设备发送:09 03 40 01 00 12 80 8F

14:32:00.165 设备接收:09 03 24 43 63 F5 C3 43 63 F7 4C 43 64 5D F4 00 00 00 00 00 00 00 00 00 00 00 00 BE A2 4D D3 3E D8 10 63 C6 F7 A8 00 09 D8

14:32:00.180 设备发送:09 01 00 01 00 02 ED 43

14:32:00.695 设备接收:09 01 01 00 53 E8

14:32:00.722 设备发送:08 03 40 01 00 12 81 5E

14:32:01.220 设备接收:00 00 00 00 04 00 00 00 00 00 00 00 00 24 08 00 00 00 00 00 00 00 00 00 00 00 00 38 00 00 00 30 08 00 60 00 00 00 00 80 A0

14:32:01.247 设备发送:08 01 00 01 00 02 EC 92

14:32:01.722 设备接收:08 01 01 00 02 00 00 52 14 08 81 01 51 92

14:32:01.762 设备发送:09 03 40 01 00 12 80 8F

14:32:02.277 设备发送:09 01 00 01 00 02 ED 43

14:32:02.277 设备发送:09 01 00 01 00 02 ED 43 63 F0 21 43 64 4D 92 00 00 00 00 00 00 00 00 00 00 00 00 BE D8 93 75 3E F2 B0 22 C7 25 3C 00 66 79

14:32:02.762 设备接收:09 01 01 00 53 E8

14:32:02.803 设备发送:08 03 40 01 00 12 81 5E

14:32:03.278 设备接收:00 00 00 00 00 80 1C 00 00 F0 C0 00 00 18 00 00 00 00 00 00 00 00 00 00 00 00 00 38 00 00 00 30 08 00 50 00 48 00 00 48 00

14:32:03.325 设备发送:08 01 00 01 00 02 EC 92

14:32:03.812 设备接收:00 00 00 00 00 00

14:32:03.853 设备发送:09 03 40 01 00 12 80 8F

14:32:04.326 设备接收:09 03 24 43 64 06 EA 43 64 01 8A 43 64 6A C1 00 00 00 00 00 00 00 00 00 00 00 00 BE F3 33 34 BE 21 CA C1 C7 39 8C 00 77 E2

14:32:04.368 设备发送:09 01 00 01 00 02 ED 43

14:32:04.88800

14:32:06.93500

14:32:08.99000

14:32:11.03800

14:32:13.09300

14:32:15.14200

14:32:17.20100

14:32:19.26000

14:32:23.36100

