
14:12:10.901 设备接收:09 01 01 00 53 E8

14:12:10.934 设备发送:08 03 40 01 00 12 81 5E

14:12:11.417 设备接收:00 02 00 02 42 00 10 02 42 40 08 02 42 C4 C2 00 00 00 00 00 00 00 00 00 00 00 00 3A A0 46 26 34 00 00 C0 02 50 00 00 52 24

14:12:11.452 设备发送:08 01 00 01 00 02 EC 92

14:12:11.954 设备发送:08 01 00 01 00 02 EC 92

14:12:12.488 设备发送:08 01 00 01 00 02 EC 92

14:12:12.993 设备接收:08 01 01 00 52 14 08 01 01 00 52 14 08 81 00 90 52 08 81 01 51 92 08 81 01 51 92 08 81 01 51 92 08 81 01 51 92 08 81 01 51 92 08 81 01 51 92 08 81 01 51 92 08 81 01 51 92 08 81 01 51 92 08 81 01 51 92 08 81 01 51 92 08 81 01 51 92 08 81 01 51 92 08 81 01 51 92 08 81 01 51 92 08 81 01 51 92 08 81 01 51 92 08 81 01 51 92 08 81 01 51 92 08 81 01 51 92 08 81 01 51 92 08 81 01 51 92 08 81 01 51 92 08 81 01 51 92 08 81 01 51 92 08 81 01 51 92 08 81 01

14:12:13.015 设备发送:09 03 40 01 00 12 80 8F

14:12:13.494 设备接收:51 92 08 81 01 51 92 08 81 01 51 92 08 81 01 51 92 08 81 01 51 92 08 81 01 51 92 08 81 01 51 92 08 01 01 00 52 14 08 81 00 90 52 08 81 01 51 92 08 81 01 51 92 08 81 01 51 92 08 81 01 51 92 08 81 01 51 92 08 81 01 51 92 08 81 01 51 92 08 81 01 51 92 08 81 01 51 92 08 81 01 51 92 08 81 01 51 92 08 81 01 51 92 08 81 01 51 92 08 81 01 51 92 08 81 01 51 92 08 81 01 51 92 08 81 01 51 92 08 81 01 51 92 08 81 01 51 92 08 81 01 51 92 08 81 01 51 92 08 81

14:12:13.542 设备发送:09 01 00 01 00 02 ED 43

14:12:14.014 设备接收:01 51 92 08 81 01 51 92 08 81 01 51 92 08 81 01 51 92 08 81 01 51 92 08 81 01 51 92 08 81 01 51 92 08 81 01 51 92 08 81 01 51 92 08 81 01 51 92 08 81 01 51 92 AF FF FD FF FB 09 03 24 43 63 71 28 43 63 4F 5D 43 63 CD 51 00 00 00 00 00 00 00 00 00 00 00 00 BF 22 0C 4A BD 5D 2F 1B C7 77 44 00 11 EB 09 01 01 00 53 E8

14:12:14.033 设备发送:08 03 40 01 00 12 81 5E

14:12:14.549 设备接收:00 02 00 02 42 64 A6 02 42 20 4E 02 42 86 2E 00 00 00 00 00 00 00 00 00 00 00 00 3C 90 00 06 3A 80 A2 E0 04 00 10 00 60 3C

14:12:14.558 设备发送:08 01 00 01 00 02 EC 92

14:12:15.057 设备接收:00 00 00 81

14:12:15.107 设备发送:09 03 40 01 00 12 80 8F

14:12:15.579 设备接收:09 03 24 43 63 74 FF 43 63 48 32 43 63 C6 67 00 00 00 00 00 00 00 00 00 00 00 00 BE A2 4D D3 BD 5D 2F 1B C6 F7 A8 00 DC 2E

14:12:15.594 设备发送:09 01 00 01 00 02 ED 43

14:12:16.129 设备发送:08 03 40 01 00 12 81 5E

14:12:16.629 设备接收:00 02 00 02 42 60 04 02 42 06 48 02 42 98 02 00 00 00 00 00 00 00 00 00 00 00 00 3C 02 04 82 34 00 00 C0 04 CC 80 00 00 74

14:12:16.642 设备发送:08 01 00 01 00 02 EC 92

14:12:17.151 设备接收:00 00 00 42

14:12:17.171 设备发送:09 03 40 01 00 12 80 8F

14:12:17.656 设备接收:09 03 24 43 63 7C EE 43 63 49 38 43 63 C6 EA 00 00 00 00 00 00 00 00 00 00 00 00 BE A2 4D D3 BD D9 16 88 C6 F7 A8 00 B2 9D

14:12:17.691 设备发送:09 01 00 01 00 02 ED 43

14:12:18.191 设备接收:09 01 01 00 53 E8

14:12:18.213 设备发送:08 03 40 01 00 12 81 AA FF FF 0A 00 05 04 08 03 40 01 00 12 81 5E

14:12:18.712 设备接收:00 00 40 40 05 01 02 82 0A 05 02 A2 70 00 00 40 20 35 50 EA D0 01 22 00 00 00 E2

14:12:18.720 设备发送:08 01 00 01 00 02 EC 92

14:12:19.232 设备接收:00 00 00 42

14:12:19.253 设备发送:09 03 40 01 00 12 80 8F

14:12:19.742 设备接收:09 03 24 43 63 B3 B7 43 63 77 0B 43 63 FE B9 00 00 00 00 00 00 00 00 00 00 00 00 BE BC ED 92 3E 56 04 19 C7 10 24 00 F0 3A

14:12:19.782 设备发送:09 01 00 01 00 02 ED 43

14:12:20.269 设备接收:09 01 01 00 53 E8

14:12:20.296 设备发送:08 03 40 01 00 12 81 5E

14:12:20.776 设备接收:00 00 40 40 C2 44 40 40 10 04 02 08 19 00 45 48 60 00 2C E8

14:12:20.822 设备发送:08 01 00 01 00 02 EC 92

14:12:21.297 设备接收:00 00 00 81

14:12:21.333 设备发送:09 03 40 01 00 12 80 8F

14:12:21.831 设备接收:09 03 24 43 63 C3 55 43 63 7B E8 43 64 04 DE 00 00 00 00 00 00 00 00 00 00 00 00 BE F3 B6 46 3E 21 CA C1 C7 39 F0 00 21 59

14:12:21.836 设备发送:09 01 00 01 00 02 ED 43

14:12:22.352 设备接收:09 01 01 00 53 E8

14:12:22.371 设备发送:08 03 40 01 00 12 81 5E

14:12:22.876 设备接收:00 00 40 40 58 0A 02 1A 11 02 02 50 30 10 01 48 AB 81 00 00 01 00 B0 C2

14:12:22.901 设备发送:08 01 00 01 00 02 EC 92

14:12:23.392 设备接收:00 00 00 42

14:12:23.404 设备发送:09 03 40 01 00 12 80 8F

14:12:23.914 设备接收:09 03 24 43 63 C6 EA 43 63 76 88 43 63 FB E8 00 00 00 00 00 00 00 00 00 00 00 00 BF 07 6C 8C 3E 87 2B 02 C7 4E A4 00 6C AD

14:12:23.923 设备发送:09 01 00 01 00 02 ED 43

14:12:24.440 设备接收:09 01 01 00 53 E8

14:12:24.450 设备发送:08 03 40 01 00 12 81 5E

14:12:24.950 设备接收:00 00 40 40 D0 C1 40 40 80 40 0A 3E 03 90 94 54 0B 20 04 0A 01 00 6C F3

14:12:24.964 设备发送:08 01 00 01 00 02 EC 92

14:12:25.467 设备接收:00 00 00 81

14:12:25.490 设备发送:09 03 40 01 00 12 80 8F

14:12:25.979 设备接收:09 03 24 43 63 C0 C5 43 63 74 3A 43 63 FD 30 00 00 00 00 00 00 00 00 00 00 00 00 BF 14 FD F4 BE 21 CA C1 C7 63 58 00 58 76

14:12:26.016 设备发送:09 01 00 01 00 02 ED 43

14:12:26.495 设备接收:09 01 01 00 53 E8

14:12:26.534 设备发送:08 03 40 01 00 12 81 5E

14:12:27.039 设备接收:00 02 00 02 42 82 04 02 42 00 40 02 40 04 08 00 00 00 00 00 00 00 00 00 00 00 00 3A A0 04 2C 38 82 12 22 04 40 00 00 88 10

14:12:27.041 设备发送:08 01 00 01 00 02 EC 92

14:12:27.547 设备接收:00 00 00 81

14:12:27.563 设备发送:09 03 40 01 00 12 80 8F

14:12:28.057 设备接收:09 03 24 43 63 DE FB 43 63 8D 51 43 64 1B 65 00 00 00 00 00 00 00 00 00 00 00 00 BF 14 BC 6B 3E A1 CA C1 C7 62 F4 00 CA 1F

14:12:28.088 设备发送:09 01 00 01 00 02 ED 43

14:12:28.573 设备接收:09 01 01 00 53 E8

14:12:28.630 设备发送:08 03 40 01 00 12 81 5E

14:12:29.107 设备接收:00 02 00 02 42 C2 52 02 42 02 00 02 40 00 08 00 00 00 00 00 00 00 00 00 00 00 00 00 00 00 00 3C 20 00 40 00 00 00 00 00 02

14:12:29.114 设备发送:08 01 00 01 00 02 EC 92

14:12:29.623 设备接收:00 00 00 81

14:12:29.649 设备发送:09 03 40 01 00 12 80 8F

14:12:30.139 设备接收:09 03 24 43 63 E1 48 43 63 92 B1 43 64 1B 65 00 00 00 00 00 00 00 00 00 00 00 00 BE 87 2B 02 3D D7 0A 3E C6 CE 40 00 BE CA

14:12:30.161 设备发送:09 01 00 01 00 02 ED 43

14:12:30.659 设备接收:09 01 01 00 53 E8

14:12:30.678 设备发送:08 03 40 01 00 12 81 5E

14:12:31.188 设备接收:00 02 00 02 42 C0 8A 02 42 14 B8 02 40 10 28 00 00 00 00 00 00 00 00 00 00 00 00 3A 88 10 60 3A A0 CA C0 02 04 00 00 00 00

14:12:31.219 设备发送:08 01 00 01 00 02 EC 92

14:12:31.691 设备接收:08 01 01 00 00 52 14 08 81 01 51 92

14:12:31.714 设备发送:09 03 40 01 00 12 80 8F

14:12:32.226 设备接收:09 03 24 43 63 E7 F0 43 63 71 EC 43 64 11 69 00 00 00 00 00 00 00 00 00 00 00 00 BE F3 B6 46 3D D9 16 88 C7 39 F0 00 F9 DC

14:12:32.229 设备发送:09 01 00 01 00 02 ED 43

14:12:32.750 设备接收:09 01 01 00 53 E8

14:12:32.750 设备发送:08 03 40 01 00 12 81 5E

14:12:33.244 设备接收:00 02 00 02 42 D0 60 02 42 0C 42 02 40 00 00 00 00 00 00 00 00 00 00 00 00 00 00 3C 10 00 06 3C 72 A0 00 04 00 10 00 88 80

14:12:33.278 设备发送:08 01 00 01 00 02 EC 92

14:12:33.772 设备接收:00 00 00 42

14:12:33.803 设备发送:09 03 40 01 00 12 80 8F

14:12:34.293 设备接收:09 03 24 43 63 EC 8C 43 63 9E 36 43 64 29 38 00 00 00 00 00 00 00 00 00 00 00 00 BF 07 2B 02 3D 54 FD F4 C7 4E 40 00 CA 11

14:12:34.327 设备发送:09 01 00 01 00 02 ED 43

14:12:34.820 设备接收:09 01 01 00 53 E8

14:12:34.832 设备发送:08 03 40 01 00 12 81 5E

14:12:35.340 设备接收:00 02 00 02 42 E0 08 02 42 14 00 02 40 28 08 00 00 00 00 00 00 00 00 00 00 00 00 34 06 24 D0 3C 50 0A 24 04 80 00 00 00 88

14:12:35.361 设备发送:08 01 00 01 00 02 EC 92

14:12:35.869 设备接收:00 00 00 81

14:12:35.870 设备发送:09 03 40 01 00 12 80 8F

14:12:36.376 设备接收:09 03 24 43 63 B9 17 43 63 71 69 43 63 EE 15 00 00 00 00 00 00 00 00 00 00 00 00 BF 14 BC 6B 3D D9 16 88 C7 62 F4 00 4D 50

14:12:36.402 设备发送:09 01 00 01 00 02 ED 43

14:12:36.889 设备接收:09 01 01 00 53 E8

14:12:36.928 设备发送:08 03 40 01 00 12 81 5E

14:12:37.419 设备接收:00 00 40 40 A9 07 40 40 80 40 40 F8 02 00 84 00 03 01 C2 FF

14:12:37.441 设备发送:08 01 00 01 00 02 EC 92

14:12:37.923 设备接收:00 00 00 81

14:12:37.972 设备发送:09 03 40 01 00 12 80 8F

14:12:38.472 设备接收:09 03 24 43 63 B9 59 43 63 68 73 43 63 F2 2E 00 00 00 00 00 00 00 00 00 00 00 00 BF 4A C0 84 3E 86 24 DE C7 9A B0 00 A9 7F

14:12:38.497 设备发送:09 01 00 01 00 02 ED 43

14:12:38.970 设备接收:09 01 01 00 53 E8

14:12:38.999 设备发送:08 03 40 01 00 12 81 5E

14:12:39.514 设备接收:00 02 00 02 42 20 20 02 42 68 02 02 42 E4 40 00 00 00 00 00 00 00 00 00 00 00 00 3A 80 A2 E0 3A 20 CA C0 02 44 00 00 C0 22

14:12:40.023 设备接收:00 00 00 81

14:12:40.035 设备发送:09 03 40 01 00 12 80 8F

14:12:40.532 设备接收:09 03 24 43 63 A7 AF 43 63 5C 6B 43 63 EB 44 00 00 00 00 00 00 00 00 00 00 00 00 BF 2F 9D B3 BD 54 FD F4 C7 85 FC 00 47 12

14:12:40.549 设备发送:09 01 00 01 00 02 ED 43

14:12:41.053 设备接收:09 01 01 00 53 E8

14:12:41.070 设备发送:08 03 40 01 00 12 81 5E

14:12:41.596 设备接收:00 02 00 02 42 20 14 02 42 68 18 02 42 E4 8C 00 00 00 00 00 00 00 00 00 00 00 00 34 06 00 1E 00 00 00 00 04 80 00 00 00 10

14:12:41.612 设备发送:08 01 00 01 00 02 EC 92

14:12:42.084 设备接收:08 01 01 00 00 52 14 08 81 01 51 92

14:12:42.119 设备发送:09 03 40 01 00 12 80 8F

14:12:42.612 设备接收:00 02 00 02 42 20 20 02 42 AA FF FF 2B 00 05 03 09 03 24 43 63 B6 46 43 63 6A C1 43 63 F0 E6 00 00 00 00 00 00 00 00 00 00 00 00 BE D8 93 75 3D DB 22 D2 C7 25 3C 00 55 CD

14:12:42.645 设备发送:09 01 00 01 00 02 ED 43

14:12:43.131 设备接收:09 01 01 00 53 E8

14:12:43.170 设备发送:08 03 40 01 00 12 81 5E

14:12:43.656 设备接收:00 00 40 40 A8 08 40 40 0A 23 02 C2 45 0E 21 18 30 AB 10 20 04 00 00 00 00

14:12:43.678 设备发送:08 01 00 01 00 02 EC 92

14:12:44.188 设备发送:09 03 40 01 00 12 80 8F

14:12:44.700 设备接收:09 03 24 43 63 B0 E6 43 63 5E 36 43 63 E3 96 00 00 00 00 00 00 00 00 00 00 00 00 BE F3 33 34 3E 57 0A 3E C7 39 8C 00 1A 2D

14:12:44.715 设备发送:09 01 00 01 00 02 ED 43

14:12:45.221 设备接收:09 01 01 00 53 E8

14:12:45.221 设备发送:08 03 40 01 00 12 81 5E

14:12:45.736 设备接收:00 02 00 02 42 10 76 02 42 24 10 02 42 C2 04 00 00 00 00 00 00 00 00 00 00 00 00 3A A0 00 40 34 02 20 D2 04 40 20 00 22 60

14:12:45.747 设备发送:08 01 00 01 00 02 EC 92

14:12:46.254 设备接收:00 00 00 81

14:12:46.270 设备发送:09 03 40 01 00 12 80 8F

14:12:46.772 设备接收:09 03 24 43 63 BC EE 43 63 64 DE 43 63 FB A7 00 00 00 00 00 00 00 00 00 00 00 00 BF 14 39 59 3E 57 0A 3E C7 62 2C 00 CC E7

14:12:46.802 设备发送:09 01 00 01 00 02 ED 43

14:12:47.290 设备接收:09 01 01 00 53 E8

14:12:47.304 设备发送:08 03 40 01 00 12 81 5E

14:12:47.811 设备接收:00 02 00 02 42 A0 02 02 42 82 02 02 40 10 E2 00 00 00 00 00 00 00 00 00 00 00 00 3A 20 08 00 3A B0 28 00 02 42 40 00 00 C8

14:12:47.832 设备发送:08 01 00 01 00 02 EC 92

14:12:48.336 设备接收:00 00 00 42

14:12:48.363 设备发送:09 03 40 01 00 12 80 8F

14:12:48.458 设备发送:09 03 40 01

14:12:48.853 设备接收:09 03 24 43 63 D5 C3 43 63 80 42 43 64 12 F2 00 00 00 00 00 00 00 00 00 00 00 00 BE BC ED 92 3E 87 2B 02 C7 10 24 00 C2 5F

14:12:48.886 设备发送:09 01 00 01 00 02 ED 43

14:12:49.373 设备接收:09 01 01 00 53 E8

14:12:49.384 设备发送:08 03 40 01 00 12 81 5E

14:12:49.895 设备接收:00 02 00 02 42 9A 24 02 42 84 18 02 40 00 06 00 00 00 00 00 00 00 00 00 00 00 00 3C 10 00 00 3A 20 CA C0 04 00 00 00 C6 08

14:12:49.926 设备发送:08 01 00 01 00 02 EC 92

14:12:50.423 设备接收:00 00 00 81

14:12:50.438 设备发送:09 03 40 01 00 12 80 8F

14:12:50.942 设备接收:09 03 24 43 63 D0 63 43 63 7B E8 43 64 07 6D 00 00 00 00 00 00 00 00 00 00 00 00 BF 14 39 59 3E BC 6A 80 C7 62 2C 00 E0 43

14:12:50.957 设备发送:09 01 00 01 00 02 ED 43

14:12:51.465 设备接收:09 01 01 00 53 E8

14:12:51.496 设备发送:08 03 40 01 00 12 81 5E

14:12:51.966 设备接收:00 02 00 02 42 98 16 02 42 10 00 02 40 04 10 00 00 00 00 00 00 00 00 00 00 00 00 3C 70 90 20 00 00 00 00 06 20 08 00 04 80

14:12:52.002 设备发送:08 01 00 01 00 02 EC 92

14:12:52.497 设备接收:08 01 01 00 00 52 14 08 81 01 51 92

14:12:52.506 设备发送:09 03 40 01 00 12 80 8F

14:12:53.021 设备接收:09 03 24 43 63 CC 09 43 63 8B 44 43 64 21 48 00 00 00 00 00 00 00 00 00 00 00 00 BF 07 2B 02 3A 83 12 6F C7 4E 40 00 76 7C

14:12:53.028 设备发送:09 01 00 01 00 02 ED 43

14:12:53.533 设备接收:09 01 01 00 53 E8

14:12:53.562 设备发送:08 03 40 01 00 12 81 5E

14:12:54.058 设备接收:00 02 00 02 42 86 48 02 42 00 44 02 40 02 90 00 00 00 00 00 00 00 00 00 00 00 00 3A 20 D0 E0 3C 40 00 88 04 40 00 00 08 02

14:12:54.071 设备发送:08 01 00 01 00 02 EC 92

