
14:36:45.756 设备接收:00 00 20 00 90 A2 04 00 AA 00 03 00 00 99 00 6A 86 00 8C 03 29 A0 01 02 00 00 C8 08

14:36:45.768 设备发送:08 01 00 01 00 02 EC 92

14:36:46.785 设备接收:00 00 00 50 E0

14:36:46.786 设备发送:09 03 40 01 00 12 80 8F

14:36:47.803 设备接收:09 03 24 43 64 68 F6 43 64 54 3A 43 64 D8 94 00 00 00 00 00 00 00 00 00 00 00 00 BE D8 93 75 3E BC 6A 80 C7 25 3C 00 9C 3E

14:36:47.817 设备发送:09 01 00 01 00 02 ED 43

14:36:48.822 设备接收:09 01 01 00 53 E8

14:36:48.834 设备发送:08 03 40 01 00 12 81 5E

14:36:49.829 设备接收:08 00 00 08 80 61 20 08 80 20 40 40 28 0C 00 32 E8 70 C0 06 A0 02 19 2C 20 90 FA

14:36:49.856 设备发送:08 01 00 01 00 02 EC 92

14:36:50.847 设备接收:00 00 00 50 E0

14:36:50.867 设备发送:09 03 40 01 00 12 80 8F

14:36:51.877 设备接收:09 03 24 43 64 59 59 43 64 53 B7 43 64 D2 F2 00 00 00 00 00 00 00 00 00 00 00 00 BD 59 16 88 BD 54 FD F4 C5 A5 A0 00 8A 7B

14:36:51.893 设备发送:09 01 00 01 00 02 ED 43

14:36:52.923 设备发送:08 03 40 01 00 12 81 5E

14:36:53.912 设备接收:00 00 20 00 0A 88 02 00 8A 20 05 00 22 20 4C 86 09 40 6C A1 03 A8 20 02 00 40 C0

14:36:53.932 设备发送:08 01 00 01 00 02 EC 92

14:36:54.933 设备接收:00 00 00 50 E0

14:36:54.954 设备发送:09 03 40 01 00 12 80 8F

14:36:55.956 设备接收:09 03 24 43 64 4D 0F 43 64 55 40 43 64 C9 38 00 00 00 00 00 00 00 00 00 00 00 00 BE F3 B6 46 BD 54 FD F4 C7 39 F0 00 0C 3A

14:36:55.986 设备发送:09 01 00 01 00 02 ED 43

14:36:56.994 设备发送:08 03 40 01 00 12 81 5E

14:36:57.985 设备接收:00 00 24 00 44 3C 29 00 44 F4 70 00 64 48 04 26 06 4C 96 42 29 41 47 06 80 00 40 FF

14:36:58.021 设备发送:08 01 00 01 00 02 EC 92

14:36:58.325 设备发送:08 03 40 01 00 12

14:36:59.024 设备发送:09 03 40 01 00 12 80 8F

14:37:00.045 设备接收:09 03 24 43 64 33 75 43 64 2E DA 43 64 B2 2E 00 00 00 00 00 00 00 00 00 00 00 00 BE BD 70 A4 3E A1 47 AF C7 10 88 00 8A D6

14:37:00.059 设备发送:09 03 40 01 00 12 AA FF FF 0A 00 05 04 09 01 00 01 00 02 ED 43

14:37:01.047 设备接收:09 01 01 00 53 E8

14:37:01.081 设备发送:08 03 40 01 00 12 81 5E

14:37:02.066 设备接收:00 00 20 00 24 24 08 00 24 04 1A 44 02 00 00 32 20 00 23 22 06 A6 04 24 00 8C 2C

14:37:02.110 设备发送:08 01 00 01 00 02 EC 92

14:37:03.100 设备发送:09 03 40 01 00 12 80 8F

14:37:03.115 设备发送:08 03 40 01 00 12

14:37:04.112 设备接收:09 03 24 43 64 18 53 43 64 2B 03 43 64 9F 7E 00 00 00 00 00 00 00 00 00 00 00 00 BE D8 10 63 3D D9 16 88 C7 24 D8 00 32 6A

14:37:04.139 设备发送:09 01 00 01 00 02 ED 43

14:37:05.139 设备接收:09 01 01 00 53 E8

14:37:05.165 设备发送:08 03 40 01 00 12 81 5E

14:37:06.159 设备接收:00 00 20 02 40 40 02 02 42 23 02 00 40 80 06 40 90 44 89 01 23 02 02 00 00 40 FF

14:37:06.172 设备发送:08 01 00 01 00 02 EC 92

14:37:06.203 设备发送:09 03 40 01 00

14:37:07.176 设备接收:00 00 00 40 E0

14:37:07.211 设备发送:09 03 40 01 00 12 80 8F

14:37:08.185 设备接收:09 03 24 43 64 3E B9 43 64 40 C5 43 64 BA 5F 00 00 00 00 00 00 00 00 00 00 00 00 BE BD 70 A4 3D D7 0A 3E C7 10 88 00 C9 41

14:37:08.207 设备发送:09 01 00 01 00 02 ED 43

14:37:09.201 设备接收:09 01 01 00 53 E8

14:37:09.239 设备发送:08 03 40 01 00 12 81 5E

14:37:10.237 设备接收:00 00 20 00 24 00 09 44 04 00 02 44 06 40 00 E9 20 0A 00 00 00 00 22 00 00 00 E0

14:37:10.257 设备发送:08 01 00 01 00 02 EC 92

14:37:11.264 设备接收:00 00 00 40 E0

14:37:11.274 设备发送:09 03 40 01 00 12 80 8F

14:37:12.274 设备接收:09 03 24 43 63 FC EE 43 64 10 E6 43 64 91 EC 00 00 00 00 00 00 00 00 00 00 00 00 BE D8 93 75 BD D4 FD F4 C7 25 3C 00 D1 DB

14:37:12.286 设备发送:09 01 00 01 00 02 ED 43

14:37:13.284 设备接收:09 01 01 00 53 E8

14:37:13.327 设备发送:08 03 40 01 00 12 81 5E

14:37:14.329 设备接收:00 00 20 00 44 B0 00 00 44 20 04 00 24 00 04 22 22 00 14 00 00 00 10 20 02 00 20 A4

14:37:15.343 设备接收:00 00 00 40 E0

14:37:15.361 设备发送:09 03 40 01 00 12 80 8F

14:37:15.531 设备接收:00 00 20 00 44 B0 00 00

14:37:16.365 设备接收:09 03 24 43 64 35 40 43 64 47 F0 43 64 C1 07 00 00 00 00 00 00 00 00 00 00 00 00 BE D8 93 75 3D 54 FD F4 C7 25 3C 00 13 32

14:37:17.382 设备接收:09 01 01 00 53 E8

14:37:17.400 设备发送:08 03 40 01 00 12 81 5E

14:37:18.392 设备接收:08 03 24 43 64 3F BF 43 24 00 60 02 00 34 60 00 00 00 00 00 00 00 00 00 00 00 00 00 B2 80 00 00 B2 A6 C1 46 CE 40 00 8D 97

14:37:18.418 设备发送:08 01 00 01 00 02 EC 92

14:37:19.179 设备接收:09 03 24 43 64 35 40 43

14:37:19.401 设备接收:00 00 00 40 E0

14:37:19.428 设备发送:09 03 40 01 00 12 80 8F

14:37:20.443 设备接收:09 03 24 43 64 2C 8C 43 64 37 0B 43 64 B7 D0 00 00 00 00 00 00 00 00 00 00 00 00 BE BD 70 A4 3D DB 22 D2 C7 10 88 00 A0 A5

14:37:20.452 设备发送:09 01 00 01 00 02 ED 43

14:37:21.463 设备接收:09 01 01 00 53 E8

14:37:21.474 设备发送:08 03 40 01 00 12 81 5E

14:37:22.476 设备接收:00 00 20 02 80 0B 02 02 12 18 40 04 49 08 4C A6 00 10 01 A1 01 00 00 00 00 E0 80

14:37:22.495 设备发送:08 01 00 01 00 02 EC 92

14:37:23.512 设备接收:00 00 00 40 E0

14:37:23.514 设备发送:09 03 40 01 00 12 80 8F

14:37:24.530 设备接收:09 03 24 43 63 FA E2 43 64 16 46 43 64 74 FF 00 00 00 00 00 00 00 00 00 00 00 00 BE 87 2B 02 BD 59 16 88 C6 CE 40 00 D8 67

14:37:24.560 设备发送:09 01 00 01 00 02 ED 43

14:37:25.535 设备接收:09 01 01 00 53 E8

14:37:25.551 设备发送:08 03 40 01 00 12 81 5E

14:37:26.565 设备接收:00 00 20 00 20 20 21 00 24 21 02 00 24 30 04 C9 55 00 22 32 88 00 40 00 04 03 01

14:37:26.583 设备发送:08 01 00 01 00 02 EC 92

14:37:27.575 设备接收:00 00 00 40 E0

14:37:27.629 设备发送:09 03 40 01 00 12 80 8F

14:37:28.591 设备接收:09 03 24 43 64 1C 2A 43 64 3D B3 43 64 9D 71 00 00 00 00 00 00 00 00 00 00 00 00 BF 06 E9 79 3E 20 C4 9C C7 4D DC 00 4A E1

14:37:28.639 设备发送:09 01 00 01 00 02 ED 43

14:37:29.614 设备接收:09 01 01 00 53 E8

14:37:29.649 设备发送:08 03 40 01 00 12 81 5E

14:37:30.645 设备接收:00 00 20 00 44 30 4C 00 24 20 20 00 24 6E 05 C9 C0 20 20 02 00 47 08 04 00 00 01 FB

14:37:30.663 设备发送:08 01 00 01 00 02 EC 92

14:37:31.662 设备接收:00 00 00 40 E0

14:37:31.687 设备发送:09 03 40 01 00 12 80 8F

14:37:32.682 设备接收:09 03 24 43 63 E3 55 43 64 00 C5 43 64 65 A3 00 00 00 00 00 00 00 00 00 00 00 00 BE 87 2B 02 3E D7 8D 51 C6 CE 40 00 77 26

14:37:32.708 设备发送:09 01 00 01 00 02 ED 43

14:37:33.710 设备接收:09 01 01 00 53 E8

14:37:33.740 设备发送:08 03 40 01 00 12 81 5E

14:37:34.711 设备接收:00 00 20 00 24 00 12 44 06 26 00 24 30 38 22 42 80 48 00 00 00 46 34 00 00 22 15

14:37:34.750 设备发送:08 01 00 01 00 02 EC 92

14:37:35.748 设备接收:08 01 01 00 00 C0 52 14 08 81 01 51 92

14:37:35.763 设备发送:09 03 40 01 00 12 80 8F

14:37:36.756 设备接收:09 03 24 43 64 1A E2 43 64 42 90 43 64 A4 5B 00 00 00 00 00 00 00 00 00 00 00 00 BE BC ED 92 00 00 00 00 C7 10 24 00 D2 51

14:37:36.771 设备发送:09 01 00 01 00 02 ED 43

14:37:37.794 设备接收:09 01 01 00 53 E8

14:37:37.802 设备发送:08 03 40 01 00 12 81 5E

14:37:38.831 设备发送:08 03 40 01 00 12 81 5E

14:37:39.842 设备发送:08 03 40 01 00 12 81 5E

14:37:40.871 设备发送:08 01 00 01 00 02 EC 92

14:37:41.873 设备接收:08 03 24 00 00 00 40 40 24 54 02 40 40 A1 03 00 00 00 00 00 00 00 00 00 00 00 00 00 00 00 00 20 00 C0 01 45 0F 00 00 46 A0 00 9B 9E 08 83 01 50 F2 08 83 01 50 F2 08 83 01 50 F2 08 83 01 50 F2 08 83 01 50 F2 08 83 01 50 F2 08 83 01 50 F2 08 83 01 50 F2 08 83 01 50 F2 08 83 01 50 F2 08 83 01 50 F2 08 83 01 50 F2 08 83 01 50 F2 08 83 01 50 F2 08 83 01 50 F2 08 83 01 50 F2 08 83 01 50 F2 08 83 01 50 F2 08 83 01 50 F2 08 83 01 50 F2 08 83 01 50 F2 08

14:37:41.893 设备发送:09 03 40 01 00 12 80 8F

14:37:42.887 设备接收:83 01 50 F2 08 83 01 50 F2 08 83 01 50 F2 08 83 01 50 F2 08 83 01 50 F2 08 83 01 50 F2 08 83 01 50 F2 08 83 01 50 F2 08 83 01 50 F2 08 83 01 50 F2 08 83 01 50 F2 08 83 01 50 F2 08 83 01 50 F2 08 83 01 50 F2 08 83 01 50 F2 08 83 01 50 F2 08 83 01 50 F2 08 83 01 50 F2 08 83 01 50 F2 08 83 01 50 F2 08 83 01 50 F2 08 83 01 50 F2 08 83 01 50 F2 08 83 01 50 F2 08 83 01 50 F2 08 83 01 50 F2 08 83 01 50 F2 08 83 01 50 F2 08 83 01 50 F2 08 83 01 50 F2 08

14:37:42.920 设备发送:09 01 00 01 00 02 ED 43

14:37:43.903 设备接收:83 01 50 F2 08 83 01 50 F2 08 83 01 50 F2 08 83 01 50 F2 08 83 01 50 F2 08 83 01 50 F2 08 83 01 50 F2 08 83 01 50 F2 08 83 01 50 F2 08 83 01 50 F2 08 83 01 50 F2 08 83 01 50 F2 08 83 01 50 F2 08 FB F9 FF FF 08 81 01 51 92 08 81 01 51 92 08 81 01 51 92 08 81 01 51 92 08 81 01 51 92 08 81 01 51 92 08 81 01 51 92 08 81 01 51 92 08 81 01 51 92 08 81 01 51 92 08 81 01 51 92 08 81 01 51 92 08 81 01 51 92 08 81 01 51 92 08 81 01 51 92 08 81 01 51 92 08

14:37:43.920 设备发送:08 03 40 01 00 12 81 5E

14:37:44.922 设备接收:81 01 51 92 08 81 01 51 92 08 81 01 51 92 08 81 01 51 92 08 81 01 51 92 08 81 01 51 92 08 81 01 51 92 08 81 01 51 92 08 81 01 51 92 08 81 01 51 92 08 81 01 51 92 08 81 01 51 92 08 81 01 51 92 08 81 01 51 92 08 81 01 51 92 08 81 01 51 92 08 81 01 51 92 08 81 01 51 92 08 81 01 51 92 08 81 01 51 92 08 81 01 51 92 08 81 01 51 92 08 81 01 51 92 08 81 01 51 92 08 81 01 51 92 08 81 01 51 92 08 81 01 51 92 08 81 01 51 92 08 81 01 51 92 08 81 01 51 92 08

14:37:44.952 设备发送:08 01 00 01 00 02 EC 92

14:37:45.935 设备接收:81 01 51 92 08 81 01 51 92 08 81 01 51 92 08 81 01 51 92 08 81 01 51 92 08 81 01 51 92 08 81 01 51 92 08 81 01 51 92 08 81 01 51 92 08 81 01 51 92 08 81 01 51 92 08 81 01 51 92 08 81 01 51 92 08 81 01 51 92 08 81 01 51 92 08 81 01 51 92 08 81 01 51 92 08 81 01 51 92 08 81 01 51 92 08 81 01 51 92 08 81 01 51 92 08 81 01 51 92 08 81 01 51 92 08 81 01 51 92 08 81 01 51 92 08 03 24 43 63 D2 2E 43 64 11 69 43 64 69 BB 00 00 00 00 00 00 00 00 00 00 00

14:37:45.972 设备发送:09 03 40 01 00 12 80 8F

14:37:46.967 设备接收:00 3E 58 10 63 BD 59 16 88 46 A4 D8 00 27 22 08 83 01 50 F2 08 83 01 50 F2 08 83 01 50 F2 08 83 01 50 F2 08 83 01 50 F2 08 83 01 50 F2 08 83 01 50 F2 08 83 01 50 F2 08 83 01 50 F2 08 83 01 50 F2 08 83 01 50 F2 08 83 01 50 F2 08 83 01 50 F2 08 83 01 50 F2 08 83 01 50 F2 08 83 01 50 F2 08 83 01 50 F2 08 83 01 50 F2 08 83 01 50 F2 08 83 01 50 F2 08 83 01 50 F2 08 83 01 50 F2 08 83 01 50 F2 08 83 01 50 F2 08 83 01 50 F2 08 83 01 50 F2 08 83 01 50 F2

14:37:46.988 设备发送:09 01 00 01 00 02 ED 43

14:37:47.997 设备接收:08 83 01 50 F2 08 83 01 50 F2 08 83 01 50 F2 08 83 01 50 F2 08 83 01 50 F2 08 83 01 50 F2 08 83 01 50 F2 08 83 01 50 F2 08 83 01 50 F2 08 83 01 50 F2 08 83 01 50 F2 08 83 01 50 F2 08 83 01 50 F2 08 83 01 50 F2 08 83 01 50 F2 08 83 01 50 F2 08 83 01 50 F2 08 83 01 50 F2 08 83 01 50 F2 08 83 01 50 F2 08 83 01 50 F2 08 83 01 50 F2 08 83 01 50 F2 08 83 01 50 F2 08 83 01 09 03 24 43 64 06 A9 43 64 39 17 43 64 90 21 00 00 00 00 00 00 00 00 00 00 00 00

14:37:48.019 设备发送:08 03 40 01 00 12 81 5E

14:37:49.010 设备接收:BE D8 10 63 3D 59 16 88 C7 24 D8 00 76 CE 09 01 01 00 53 E8 08 03 24 43 64 08 F6 43 64 48 B5 00 00 04 42 00 00 00 00 00 00 00 00 00 00 00 00 00 00 00 00 00 00 00 00 00 00 00 00 08 02 D2 3D D9 16 88 46 27 30 00 DE 39 08 01 00 00 50 14 09 03 24 43 64 16 C9 43 64 37 8E 43 64 B6 88 00 00 00 00 00 00 00 00 00 00 00 00 BE 87 2B 02 3E A1 CA C1 C6 CE 40 00 A4 0A 09 01 01 00 53 E8 00 00 32 03 48 00 03 00 01 08 06 20 33 00 26 04 40 A9 42 CA 81 02 21 00 00

14:37:49.024 设备发送:08 01 00 01 00 02 EC 92

14:37:50.025 设备接收:D0 62 00 00 00 42

14:37:50.047 设备发送:09 03 40 01 00 12 80 8F

14:37:51.044 设备接收:09 03 24 43 64 1C AD 43 64 3D 30 43 64 B0 E6 00 00 00 00 00 00 00 00 00 00 00 00 BF 07 2B 02 3E 56 04 19 C7 4E 40 00 47 C4

14:37:51.075 设备发送:09 01 00 01 00 02 ED 43

14:37:52.061 设备接收:09 01 01 00 53 E8

14:37:52.082 设备发送:08 03 40 01 00 12 81 5E

14:37:53.083 设备接收:00 00 20 00 24 B0 00 24 30 21 24 60 D5 64 00 40 16 00 00 00 08 00 00 1C B8

14:37:53.113 设备发送:08 01 00 01 00 02 EC 92

14:37:54.100 设备接收:00 00 00 42

14:37:54.117 设备发送:09 03 40 01 00 12 80 8F

14:37:55.127 设备接收:09 03 24 43 64 06 26 43 64 31 AB 43 64 A7 AF 00 00 00 00 00 00 00 00 00 00 00 00 BE A1 CA C1 3E 21 CA C1 C6 F6 E0 00 32 C9

14:37:55.141 设备发送:09 01 00 01 00 02 ED 43

14:37:56.147 设备接收:09 01 01 00 53 E8

14:37:56.170 设备发送:08 03 40 01 00 12 81 5E

14:37:57.166 设备接收:00 00 20 00 44 0E 06 24 20 60 00 24 00 10 32 44 A9 BA C1 08 04 36 00 04 FF

14:37:57.188 设备发送:08 01 00 01 00 02 EC 92

14:37:58.179 设备接收:00 00 00 42

14:37:58.201 设备发送:09 03 40 01 00 12 80 8F

14:37:59.202 设备接收:09 03 24 43 64 17 D0 43 64 3C 6B 43 64 C8 73 00 00 00 00 00 00 00 00 00 00 00 00 BE D8 93 75 3E F2 B0 22 C7 25 3C 00 C8 67

14:37:59.213 设备发送:09 01 00 01 00 02 ED 43

14:38:00.243 设备接收:09 01 01 00 53 E8

14:38:00.247 设备发送:08 03 40 01 00 12 81 5E

14:38:01.230 设备接收:00 00 20 00 24 24 80 00 24 14 A1 00 24 0D 12 32 08 00 BA 20 14 00 04 32 00 64 3B

14:38:01.271 设备发送:08 01 00 01 00 02 EC 92

14:38:02.264 设备接收:00 00 00 42

14:38:02.291 设备发送:09 03 40 01 00 12 80 8F

14:38:03.277 设备接收:09 03 24 43 64 38 11 43 64 64 DE 43 64 DE FB 00 00 00 00 00 00 00 00 00 00 00 00 BE 21 CA C1 3D 54 FD F4 C6 76 E0 00 1E D7

14:38:03.302 设备发送:09 01 00 01 00 02 ED 43

14:38:04.311 设备接收:09 01 01 00 53 E8

14:38:04.325 设备发送:08 03 40 01 00 12 81 5E

14:38:05.318 设备接收:00 00 32 23 A2 40 40 06 14 1B 20 13 61 00 26 08 40 00 00 40 02 00 31 C0

14:38:05.346 设备发送:08 01 00 01 00 02 EC 92

14:38:06.334 设备接收:00 00 00 42

14:38:06.351 设备发送:09 03 40 01 00 12 80 8F

14:38:07.362 设备接收:09 03 24 43 64 2C 8C 43 64 5F 3C 43 64 D3 B7 00 00 00 00 00 00 00 00 00 00 00 00 BE 87 2B 02 3D 5D 2F 1B C6 CE 40 00 19 F3

14:38:07.397 设备发送:09 01 00 01 00 02 ED 43

14:38:08.388 设备接收:09 01 01 00 53 E8

14:38:08.416 设备发送:08 03 40 01 00 12 81 5E

14:38:09.391 设备接收:00 00 32 20 40 14 0C 20 02 01 40 36 06 00 00 00 00 6C 44 40 00 00 00 84 61

14:38:09.433 设备发送:08 01 00 01 00 02 EC 92

14:38:10.440 设备接收:00 00 00 42

14:38:10.457 设备发送:09 03 40 01 00 12 80 8F

14:38:11.443 设备接收:09 03 24 43 64 38 D6 43 64 53 34 43 64 D1 69 00 00 00 00 00 00 00 00 00 00 00 00 BE D8 93 75 3E 58 10 63 C7 25 3C 00 71 CD

14:38:11.472 设备发送:09 01 00 01 00 02 ED 43

14:38:12.471 设备接收:09 01 01 00 53 E8

14:38:12.493 设备发送:08 03 40 01 00 12 81 5E

14:38:13.477 设备接收:00 00 32 20 22 A4 40 06 9B 1A 20 2B 22 00 37 20 00 48 64 06 02 98 88 00 00 C0

14:38:13.494 设备发送:08 01 00 01 00 02 EC 92

14:38:14.499 设备接收:00 00 00 42

14:38:14.512 设备发送:09 03 40 01 00 12 80 8F

14:38:15.526 设备接收:09 03 24 43 63 F3 B7 43 64 10 A5 43 64 86 67 00 00 00 00 00 00 00 00 00 00 00 00 BF 22 4D D3 3E 58 10 63 C7 77 A8 00 1F D8

14:38:15.547 设备发送:09 01 00 01 00 02 ED 43

14:38:16.563 设备发送:08 03 40 01 00 12 81 5E

14:38:17.567 设备接收:00 00 32 20 40 02 0D 20 42 EA 03 20 A2 22 00 35 50 60 64 35 88 08 70 40 00 40 FF

14:38:17.579 设备发送:08 01 00 01 00 02 EC 92

14:38:17.648 设备发送:08 03 40 01 00 12

14:38:18.585 设备接收:00 00 00 42

14:38:18.617 设备发送:09 03 40 01 00 12 80 8F

14:38:19.610 设备接收:09 03 24 43 64 3D F4 43 64 3E B9 43 64 C5 E4 00 00 00 00 00 00 00 00 00 00 00 00 BE F3 33 34 BD 59 16 88 C7 39 8C 00 A0 AA

14:38:19.632 设备发送:09 01 00 01 00 02 ED 43

14:38:20.609 设备接收:09 01 01 00 53 E8

14:38:20.654 设备发送:08 03 40 01 00 12 81 5E

14:38:21.645 设备接收:00 00 20 00 24 30 50 00 24 14 AE 00 24 70 06 3B 06 98 10 C4 44 32 4E F5

14:38:21.658 设备发送:08 01 00 01 00 02 EC 92

14:38:22.660 设备接收:00 00 00 42

14:38:22.670 设备发送:09 03 40 01 00 12 80 8F

14:38:23.702 设备接收:09 03 24 43 64 08 73 43 64 06 A9 43 64 74 7C 00 00 00 00 00 00 00 00 00 00 00 00 BF 3D 2F 1B 3D 54 FD F4 C7 90 56 00 0D 9C

14:38:24.713 设备接收:09 01 01 00 53 E8

14:38:24.716 设备发送:08 03 40 01 00 12 81 5E

14:38:25.724 设备接收:00 00 40 80 05 00 A2 60 02 00 80 01 01 0E A1 05 2B 10 01 40 00 00 41 FF

14:38:25.736 设备发送:08 01 00 01 00 02 EC 92

14:38:26.753 设备发送:08 01 00 01 00 02 EC 92

14:38:26.777 设备接收:09 03 24 43 64 08 73 43

14:38:27.769 设备发送:08 01 00 01 00 02 EC 92

14:38:28.794 设备发送:09 03 40 01 00 12 80 8F

14:38:29.810 设备接收:08 01 01 00 52 14 08 01 01 00 52 14 08 81 00 90 52 08 81 01 51 92 08 81 01 51 92 08 81 01 51 92 08 81 01 51 92 08 81 01 51 92 08 81 01 51 92 08 81 01 51 92 08 81 01 51 92 08 81 01 51 92 08 81 01 51 92 08 81 01 51 92 08 81 01 51 92 08 81 01 51 92 08 81 01 51 92 08 81 01 51 92 08 81 01 51 92 08 81 01 51 92 08 81 01 51 92 08 81 01 51 92 08 81 01 51 92 08 81 01 51 92 08 81 01 51 92 08 81 01 51 92 08 81 01 51 92 08 81 01 51 92 08 81 01 51 92 08 81 01

14:38:29.823 设备发送:09 01 00 01 00 02 ED 43

14:38:30.815 设备接收:51 92 08 81 01 51 92 08 81 01 51 92 08 81 01 51 92 08 81 01 51 92 08 81 01 51 92 08 81 01 51 92 08 81 01 51 92 08 81 01 51 92 08 81 01 51 92 08 81 01 51 92 08 81 01 51 92 08 81 01 51 92 08 81 01 51 92 08 81 01 51 92 08 81 01 51 92 08 81 01 51 92 08 81 01 51 92 08 81 01 51 92 08 81 01 51 92 08 81 01 51 92 08 81 01 51 92 08 81 01 51 92 08 81 01 51 92 08 81 01 51 92 08 81 01 51 92 08 81 01 51 92 08 81 01 51 92 08 81 01 51 92 08 81 01 51 92 08 81 01

14:38:30.836 设备发送:08 03 40 01 00 12 81 5E

14:38:31.840 设备接收:51 92 08 81 01 51 92 08 81 01 51 92 08 81 01 51 92 08 81 01 51 92 08 81 01 51 92 08 81 01 51 92 08 81 01 51 92 08 81 01 51 92 08 01 01 00 52 14 08 81 00 90 52 08 81 01 51 92 08 81 01 51 92 08 81 01 51 92 08 81 01 51 92 08 81 01 51 92 08 81 01 51 92 08 81 01 51 92 08 81 01 51 92 08 81 01 51 92 08 81 01 51 92 08 81 01 51 92 08 81 01 51 92 08 81 01 51 92 08 81 01 51 92 08 81 01 51 92 08 81 01 51 92 08 81 01 51 92 08 81 01 51 92 08 81 01 51 92 08 81

14:38:31.859 设备发送:08 01 00 01 00 02 EC 92

14:38:32.863 设备接收:01 51 92 08 81 01 51 92 08 81 01 51 92 08 81 01 51 92 08 81 01 51 92 08 81 01 51 92 08 81 01 51 92 08 81 01 51 92 08 81 01 51 92 08 81 01 51 92 08 81 01 51 92 08 81 01 51 92 08 81 01 51 92 08 81 01 51 92 08 81 01 51 92 08 81 01 51 92 08 81 01 51 92 08 81 01 51 92 08 81 01 51 92 08 81 01 51 92 08 81 01 51 92 08 81 01 51 92 08 81 01 51 92 08 81 01 51 92 08 81 01 51 92 08 81 01 51 92 08 81 01 51 92 08 81 01 51 92 08 81 01 51 92 08 81 01 51 92 08 81

14:38:32.875 设备发送:09 03 40 01 00 12 80 8F

14:38:33.900 设备接收:01 51 92 08 81 01 51 92 08 81 01 51 92 08 81 01 51 92 08 81 01 51 92 08 81 01 51 92 08 81 01 51 92 08 81 01 51 92 08 81 01 51 92 08 81 01 51 92 08 81 01 51 92 08 81 01 51 92 08 81 01 51 92 08 81 01 51 92 08 81 01 51 92 08 81 01 51 92 08 81 01 51 92 08 81 01 51 92 FF FF FF FF F7 08 81 01 51 92 08 81 01 51 92 08 81 01 51 92 08 81 01 51 92 08 81 01 51 92 08 81 01 51 92 08 81 01 51 92 08 81 01 51 92 08 81 01 51 92 08 81 01 51 92 08 81 01 51 92 08 81

14:38:34.905 设备接收:01 51 92 08 81 01 51 92 08 81 01 51 92 08 81 01 51 92 08 81 01 51 92 08 81 01 51 92 08 81 01 51 92 08 81 01 51 92 08 81 01 51 92 08 81 01 51 92 08 81 01 51 92 08 81 01 51 92 08 81 01 51 92 08 81 01 51 92 08 81 01 51 92 08 81 01 51 92 08 81 01 51 92 08 81 01 51 92 08 81 01 51 92 08 81 01 51 92 08 81 01 51 92 08 81 01 51 92 08 81 01 51 92 08 81 01 51 92 08 81 01 51 92 08 81 01 51 92 08 81 01 51 92 08 81 01 51 92 08 81 01 51 92 08 81 01 51 92 08 81

14:38:34.920 设备发送:08 03 40 01 00 12 81 5E

14:38:35.927 设备接收:01 51 92 08 81 01 51 92 08 81 01 51 92 08 81 01 51 92 08 81 01 51 92 08 81 01 51 92 08 81 01 51 92 08 81 01 51 92 08 81 01 51 92 08 81 01 51 92 08 81 01 51 92 08 81 01 51 92 08 81 01 51 92 08 81 01 51 92 08 81 01 51 92 08 81 01 51 92 08 81 01 51 92 08 81 01 51 92 08 81 01 51 92 08 81 01 51 92 08 81 01 51 92 08 81 01 51 92 08 81 01 51 92 08 81 01 51 92 08 81 01 51 92 09 01 01 00 53 E8 00 02 00 02 42 92 5A 02 42 98 88 02 40 4A 80 00 00 00 00 00 00

14:38:35.937 设备发送:08 01 00 01 00 02 EC 92

14:38:36.950 设备发送:09 03 40 01 00 12 80 8F

14:38:36.965 设备接收:00 00 00 00 00 00 3C 06 04 04 3A A0 CA C0 84 8C 80 00 20 08 00 00 00 42 09 03 24 43 64 1F 7E 43 64 1F 7E 43 64 8D 92 00 00 00 00 00 00 00 00 00 00 00 00 BE F3 B6 46 3E 21 CA C1 C7 39 F0 00 91 E6 09 01 01 00 53 E8 08 03 06 20 43 40 0A 02 43 00 04 22 43 40 00 00 00 02 01 04 10 C5 0C 50 02 10 00 01 78 A9 00 00 00 81

14:38:37.951 设备接收:09 03 24 43 64 40 01 43 64 3B A7 43 64 B4 FF 00 00 00 00 00 00 00 00 00 00 00 00 BE D8 93 75 3E A1 47 AF C7 25 3C 00 B3 90

14:38:37.973 设备发送:09 01 00 01 00 02 ED 43

14:38:38.857 设备接收:01 51 92 08 81 01 51 92

14:38:38.993 设备发送:08 03 40 01 00 12 81 5E

14:38:40.004 设备发送:08 03 40 01 00 12 81 5E

14:38:41.027 设备发送:08 03 40 01 00 12 81 5E

14:38:42.050 设备发送:08 01 00 01 00 02 EC 92

14:38:43.059 设备接收:08 03 24 43 63 58 04 02 42 21 1A 02 02 42 01 00 00 00 00 00 A8 10 05 4A 04 14 37 00 32 8D 08 83 01 50 F2 08 83 01 50 F2 08 83 01 50 F2 08 83 01 50 F2 08 83 01 50 F2 08 83 01 50 F2 08 83 01 50 F2 08 83 01 50 F2 08 83 01 50 F2 08 83 01 50 F2 08 83 01 50 F2 08 83 01 50 F2 08 83 01 50 F2 08 83 01 50 F2 08 83 01 50 F2 08 83 01 50 F2 08 83 01 50 F2 08 83 01 50 F2 08 83 01 50 F2 08 83 01 50 F2 08 83 01 50 F2 08 83 01 50 F2 08 83 01 50 F2 08 83 01 50 F2

14:38:43.092 设备发送:09 03 40 01 00 12 80 8F

14:38:44.075 设备接收:08 83 01 50 F2 08 83 01 50 F2 08 83 01 50 F2 08 83 01 50 F2 08 83 01 50 F2 08 83 01 50 F2 08 83 01 50 F2 08 83 01 50 F2 08 83 01 50 F2 08 83 01 50 F2 08 83 01 50 F2 08 83 01 50 F2 08 83 01 50 F2 08 83 01 50 F2 08 83 01 50 F2 08 83 01 50 F2 08 83 01 50 F2 08 83 01 50 F2 08 83 01 50 F2 08 83 01 50 F2 08 83 01 50 F2 08 83 01 50 F2 08 83 01 50 F2 08 83 01 50 F2 08 83 01 50 F2 08 83 01 50 F2 08 83 01 50 F2 08 83 01 50 F2 08 83 01 50 F2 08 83 01 50 F2

14:38:44.107 设备发送:09 01 00 01 00 02 ED 43

14:38:44.121 设备发送:08 03 40 01 00 12

14:38:45.110 设备接收:08 83 01 50 F2 08 83 01 50 F2 08 83 01 50 F2 08 83 01 50 F2 08 83 01 50 F2 08 83 01 50 F2 08 83 01 50 F2 08 83 01 50 F2 08 83 01 50 F2 08 83 01 50 F2 08 83 01 50 F2 08 83 01 50 F2 08 03 24 43 63 F8 53 43 64 0E 98 43 64 6E 98 00 00 00 00 00 00 00 00 00 00 00 00 3E F2 B0 22 3E A1 CA C1 47 39 28 00 8B 08 08 83 01 50 F2 08 83 01 50 F2 08 83 01 50 F2 08 83 01 50 F2 08 83 01 50 F2 08 83 01 50 F2 08 83 01 50 F2 08 83 01 50 F2 08 83 01 50 F2 08 83 01 50

14:38:45.124 设备发送:08 03 40 01 00 12 81 5E

14:38:46.124 设备接收:F2 08 83 01 50 F2 08 83 01 50 F2 08 83 01 50 F2 08 83 01 50 F2 08 83 01 50 F2 08 83 01 50 F2 08 83 01 50 F2 08 83 01 50 F2 08 83 01 50 F2 08 83 01 50 F2 08 83 01 50 F2 08 83 01 50 F2 08 83 01 50 F2 08 83 01 50 F2 08 83 01 50 F2 08 83 01 50 F2 08 83 01 50 F2 08 83 01 50 F2 08 83 01 50 F2 08 83 01 50 F2 08 83 01 50 F2 08 83 01 50 F2 08 83 01 50 F2 08 83 01 50 F2 08 83 01 50 F2 08 83 01 50 F2 08 83 01 50 F2 08 83 01 50 F2 08 83 01 50 F2 08 83 01 50

14:38:46.144 设备发送:08 01 00 01 00 02 EC 92

14:38:47.135 设备接收:F2 08 83 01 50 F2 08 83 01 50 F2 08 83 01 50 F2 08 83 01 50 F2 08 83 01 50 F2 08 83 01 50 F2 08 83 01 50 F2 08 83 01 50 F2 08 83 01 50 F2 08 83 01 50 F2 08 83 01 50 F2 08 83 01 50 F2 08 83 01 50 F2 08 83 01 50 F2 08 83 01 50 F2 08 83 01 50 F2 08 83 01 50 F2 08 83 01 50 F2 08 83 01 50 F2 08 83 01 50 F2 08 83 01 50 F2 08 03 24 43 64 4B 86 43 64 40 42 43 64 A6 67 00 00 00 00 00 00 00 00 00 00 00 00 3D 59 16 88 BE 87 2B 02 45 A5 A0 00 59 11 08 83 01

14:38:47.153 设备发送:09 03 40 01 00 12 80 8F

14:38:48.164 设备接收:50 F2 08 83 01 50 F2 08 83 01 50 F2 08 83 01 50 F2 08 83 01 50 F2 08 83 01 50 F2 08 83 01 50 F2 08 83 01 50 F2 08 83 01 50 F2 08 83 01 50 F2 08 83 01 50 F2 08 83 01 50 F2 08 83 01 50 F2 08 83 01 50 F2 08 83 01 50 F2 08 83 01 50 F2 08 83 01 50 F2 08 83 01 50 F2 08 83 01 50 F2 08 83 01 50 F2 08 83 01 50 F2 08 83 01 50 F2 08 83 01 50 F2 08 83 01 50 F2 08 83 01 50 F2 08 83 01 50 F2 08 83 01 50 F2 08 83 01 50 F2 08 83 01 50 F2 08 83 01 50 F2 08 83 01

14:38:48.167 设备发送:09 01 00 01 00 02 ED 43

14:38:49.197 设备接收:50 F2 08 83 01 50 F2 08 83 01 50 F2 08 83 01 50 F2 08 83 01 50 F2 08 83 01 50 F2 08 83 01 50 F2 08 83 01 50 F2 08 83 01 50 F2 08 83 01 50 F2 08 83 01 50 F2 08 83 01 50 F2 08 83 01 50 F2 08 83 01 50 F2 08 83 01 50 F2 08 83 01 50 F2 08 83 01 50 F2 08 83 01 50 F2 08 83 01 50 F2 08 83 01 50 F2 08 83 01 50 F2 08 83 01 50 F2 08 83 01 50 F2 08 83 01 50 F2 08 83 01 50 F2 08 09 03 24 43 64 1F 7E 43 64 08 73 43 64 76 05 00 00 00 00 00 00 00 00 00 00 00 00

14:38:49.233 设备发送:08 03 40 01 00 12 81 5E

14:38:50.215 设备接收:BF 07 2B 02 3E 87 2B 02 C7 4E 40 00 B6 36 09 01 01 00 53 E8 08 03 24 43 63 EB 44 03 04 48 02 40 14 80 00 00 00 00 00 00 00 00 00 00 00 00 00 60 14 32 00 06 42 9C 47 62 90 00 6D A5 08 01 01 00 48 C0 52 14 09 03 24 43 63 97 D0 43 63 93 34 43 63 F4 FF 00 00 00 00 00 00 00 00 00 00 00 00 BE 87 2B 02 3E BC ED 92 C6 CE 40 00 26 7B 09 01 01 00 53 E8 00 02 00 02 40 12 76 02 40 08 9C 02 40 58 10 00 00 00 00 00 00 00 00 00 00 00 00 3C 0C 02 12 3A 82 12 26

14:38:51.223 设备接收:84 88 80 00 B0 48 00 00 00 81

14:38:51.255 设备发送:09 03 40 01 00 12 80 8F

14:38:52.248 设备接收:09 03 24 43 64 29 7A 43 64 10 A5 43 64 91 EC 00 00 00 00 00 00 00 00 00 00 00 00 BD D7 0A 3E 3E 22 D0 E6 C6 24 10 00 84 D8

14:38:52.284 设备发送:09 01 00 01 00 02 ED 43

14:38:53.279 设备接收:09 01 01 00 53 E8

14:38:53.298 设备发送:08 03 40 01 00 12 81 5E

14:38:53.920 设备接收:BF 07 2B 02 3E 87 2B 02

14:38:54.301 设备发送:08 03 40 01 00 12 81 5E

14:38:55.337 设备发送:08 03 40 01 00 12 81 5E

14:38:56.330 设备接收:08 03 24 03 02 20 48 02 01 00 48 34 EE 00 00 00 00 00 00 00 16 48 08 48 46 0E 00 25 A0 00 F7 49 08 83 01 50 F2 08 83 01 50 F2 08 83 01 50 F2 08 83 01 50 F2 08 83 01 50 F2 08 83 01 50 F2 08 83 01 50 F2 08 83 01 50 F2 08 83 01 50 F2 08 83 01 50 F2 08 83 01 50 F2 08 83 01 50 F2 08 83 01 50 F2 08 83 01 50 F2 08 83 01 50 F2 08 83 01 50 F2 08 83 01 50 F2 08 83 01 50 F2 08 83 01 50 F2 08 83 01 50 F2 08 83 01 50 F2 08 83 01 50 F2 08 83 01 50 F2 08 83 01

14:38:56.352 设备发送:08 01 00 01 00 02 EC 92

14:38:57.360 设备接收:50 F2 08 83 01 50 F2 08 83 01 50 F2 08 83 01 50 F2 08 83 01 50 F2 08 83 01 50 F2 08 83 01 50 F2 08 83 01 50 F2 08 83 01 50 F2 08 83 01 50 F2 08 83 01 50 F2 08 83 01 50 F2 08 83 01 50 F2 08 83 01 50 F2 08 83 01 50 F2 08 83 01 50 F2 08 83 01 50 F2 08 83 01 50 F2 08 83 01 50 F2 08 83 01 50 F2 08 83 01 50 F2 08 83 01 50 F2 08 83 01 50 F2 08 83 01 50 F2 08 83 01 50 F2 08 83 01 50 F2 08 83 01 50 F2 08 83 01 50 F2 08 83 01 50 F2 08 83 01 50 F2 08 83 01

14:38:57.397 设备发送:09 03 40 01 00 12 80 8F

14:38:58.363 设备接收:50 F2 08 83 01 50 F2 08 83 01 50 F2 08 83 01 50 F2 08 83 01 50 F2 08 83 01 50 F2 08 83 01 50 F2 08 83 01 50 F2 08 83 01 50 F2 08 83 01 50 F2 08 03 24 43 64 3D 71 43 64 28 F6 43 64 A1 CB 00 00 00 00 00 00 00 00 00 00 00 00 BD D4 FD F4 BE 58 10 63 C6 22 80 00 9D F9 08 83 01 50 F2 08 83 01 50 F2 08 83 01 50 F2 08 83 01 50 F2 08 83 01 50 F2 08 83 01 50 F2 08 83 01 50 F2 08 83 01 50 F2 08 83 01 50 F2 08 83 01 50 F2 08 83 01 50 F2 08 83 01 50 F2 08 83

14:38:58.415 设备发送:09 01 00 01 00 02 ED 43

14:38:59.406 设备接收:01 50 F2 08 83 01 50 F2 08 83 01 50 F2 08 83 01 50 F2 08 83 01 50 F2 08 83 01 50 F2 08 83 01 50 F2 08 83 01 50 F2 08 83 01 50 F2 08 83 01 50 F2 08 83 01 50 F2 08 83 01 50 F2 08 83 01 50 F2 08 83 01 50 F2 08 83 01 50 F2 08 83 01 50 F2 08 83 01 50 F2 08 83 01 50 F2 08 83 01 50 F2 08 83 01 50 F2 08 83 01 50 F2 08 83 01 50 F2 08 83 01 50 F2 08 83 01 50 F2 08 83 01 50 F2 08 83 01 50 F2 08 83 01 50 F2 08 83 01 50 F2 08 83 01 50 F2 08 83 01 50 F2 08 83

14:38:59.426 设备发送:08 03 40 01 00 12 81 5E

14:39:00.422 设备接收:01 50 F2 08 83 01 50 F2 08 83 01 50 F2 08 83 01 50 F2 08 83 01 50 F2 08 83 01 50 F2 08 83 01 50 F2 08 83 01 50 F2 08 83 01 50 F2 08 83 01 50 F2 08 83 01 50 F2 08 83 01 50 F2 08 83 01 50 F2 08 83 01 50 F2 08 83 01 50 F2 08 83 01 50 F2 08 83 01 50 F2 08 83 01 50 F2 08 83 01 50 F2 EF 7F FD FF FF 08 01 40 80 6A F1 09 03 24 43 64 2C 8C 43 64 17 8E 43 64 8B 86 00 00 00 00 00 00 00 00 00 00 00 00 BF 2F 5C 2A 3E F2 B0 22 C7 85 CA 00 57 E2 09 01 01 00 53

14:39:00.432 设备发送:08 01 00 01 00 02 EC 92

14:39:01.455 设备接收:E8 00 02 00 02 40 10 E4 02 40 08 00 02 40 18 00 00 00 00 00 00 00 00 00 00 00 00 00 3C 42 04 00 3A 20 00 40 04 A0 40 00 40 10 00 00 00 81

14:39:02.452 设备接收:09 03 24 43 64 55 C3 43 64 35 82 43 64 A3 96 00 00 00 00 00 00 00 00 00 00 00 00 BE BD 70 A4 3D D9 16 88 C7 10 88 00 B2 3D

14:39:02.469 设备发送:09 01 00 01 00 02 ED 43

14:39:03.485 设备接收:09 01 01 00 53 E8

14:39:03.504 设备发送:08 03 40 01 00 12 81 5E

14:39:04.480 设备接收:00 02 00 02 40 48 00 02 40 02 40 02 40 10 30 00 00 00 00 00 00 00 00 00 00 00 00 3C 04 0A 00 38 80 0A 28 04 8A 40 00 74 40

14:39:04.517 设备发送:08 01 00 01 00 02 EC 92

14:39:05.178 设备接收:E8 00 02 00 02 40 10 E4

14:39:05.507 设备接收:00 00 00 81

14:39:05.529 设备发送:09 03 40 01 00 12 80 8F

14:39:06.519 设备接收:09 03 24 43 64 19 17 43 63 F3 34 43 64 65 A3 00 00 00 00 00 00 00 00 00 00 00 00 BE D8 93 75 3E 86 A7 F0 C7 25 3C 00 90 3D

14:39:06.553 设备发送:09 01 00 01 00 02 ED 43

14:39:07.552 设备接收:09 01 01 00 53 E8

14:39:07.580 设备发送:08 03 40 01 00 12 81 5E

14:39:08.564 设备接收:00 02 00 02 40 40 12 02 40 02 86 02 40 80 42 00 00 00 00 00 00 00 00 00 00 00 00 38 08 2A 08 3C 04 54 04 84 00 00 00 04 08

14:39:08.586 设备发送:08 01 00 01 00 02 EC 92

14:39:09.579 设备接收:00 00 00 81

14:39:09.625 设备发送:09 03 40 01 00 12 80 8F

14:39:10.601 设备接收:09 03 24 43 64 46 A9 43 64 07 F0 43 64 86 A9 00 00 00 00 00 00 00 00 00 00 00 00 BF 07 2B 02 BE 87 2B 02 C7 4E 40 00 95 D6

14:39:10.649 设备发送:09 01 00 01 00 02 ED 43

14:39:11.638 设备发送:08 03 40 01 00 12 81 5E

14:39:12.644 设备接收:00 02 00 02 40 4C 8C 02 40 00 20 02 40 60 54 00 00 00 00 00 00 00 00 00 00 00 00 3C 86 00 3C 38 92 08 10 84 00 00 00 08 40

14:39:12.664 设备发送:08 01 00 01 00 02 EC 92

14:39:13.672 设备接收:00 00 00 81

14:39:13.688 设备发送:09 03 40 01 00 12 80 8F

14:39:14.690 设备接收:09 03 24 43 63 F0 63 43 63 A7 6D 43 64 1C AD 00 00 00 00 00 00 00 00 00 00 00 00 BF 14 FD F4 3E BC 6A 80 C7 63 58 00 96 84

14:39:14.713 设备发送:09 01 00 01 00 02 ED 43

14:39:15.707 设备接收:09 01 01 00 53 E8

14:39:15.716 设备发送:08 03 40 01 00 12

14:39:15.718 设备发送:08 03 40 01 00 12 81 5E

14:39:16.725 设备接收:00 02 00 02 40 4C 10 02 40 04 08 02 40 80 14 00 00 00 00 00 00 00 00 00 00 00 00 3C 40 14 80 3C 84 08 32 04 24 80 00 80 40

14:39:16.755 设备发送:08 01 00 01 00 02 EC 92

14:39:17.781 设备发送:08 01 00 01 00 02 EC 92

14:39:18.786 设备发送:08 01 00 01 00 02 EC 92

14:39:19.800 设备接收:08 01 01 00 52 14 08 01 01 00 52 14 08 81 00 90 52 08 81 01 51 92 08 81 01 51 92 08 81 01 51 92 08 81 01 51 92 08 81 01 51 92 08 81 01 51 92 08 81 01 51 92 08 81 01 51 92 08 81 01 51 92 08 81 01 51 92 08 81 01 51 92 08 81 01 51 92 08 81 01 51 92 08 81 01 51 92 08 81 01 51 92 08 81 01 51 92 08 81 01 51 92 08 81 01 51 92 08 81 01 51 92 08 81 01 51 92 08 81 01 51 92 08 81 01 51 92 08 81 01 51 92 08 81 01 51 92 08 81 01 51 92 08 81 01 51 92 08 81 01

14:39:20.823 设备接收:51 92 08 81 01 51 92 08 81 01 51 92 08 81 01 51 92 08 81 01 51 92 08 81 01 51 92 08 81 01 51 92 08 81 01 51 92 08 81 01 51 92 08 81 01 51 92 08 81 01 51 92 08 81 01 51 92 08 81 01 51 92 08 81 01 51 92 08 81 01 51 92 08 81 01 51 92 08 81 01 51 92 08 81 01 51 92 08 81 01 51 92 08 81 01 51 92 08 81 01 51 92 08 81 01 51 92 08 81 01 51 92 08 81 01 51 92 08 81 01 51 92 08 81 01 51 92 08 81 01 51 92 08 81 01 51 92 08 81 01 51 92 08 81 01 51 92 08 81 01

14:39:20.838 设备发送:09 01 00 01 00 02 ED 43

14:39:21.844 设备接收:51 92 08 81 01 51 92 08 81 01 51 92 08 81 01 51 92 08 81 01 51 92 08 81 01 51 92 08 81 01 51 92 08 81 01 51 92 08 81 01 51 92 08 F1 FD FF FD 08 81 01 51 92 08 81 01 51 92 08 81 01 51 92 08 81 01 51 92 08 81 01 51 92 08 81 01 51 92 08 81 01 51 92 08 81 01 51 92 08 81 01 51 92 08 81 01 51 92 08 81 01 51 92 08 81 01 51 92 08 81 01 51 92 08 81 01 51 92 08 81 01 51 92 08 81 01 51 92 08 81 01 51 92 08 81 01 51 92 08 81 01 51 92 08 81 01 51 92 08 81 01

14:39:21.862 设备发送:08 03 40 01 00 12 81 5E

14:39:22.855 设备接收:51 92 08 81 01 51 92 08 81 01 51 92 08 81 01 51 92 08 81 01 51 92 08 81 01 51 92 08 81 01 51 92 08 81 01 51 92 08 81 01 51 92 08 81 01 51 92 08 81 01 51 92 08 81 01 51 92 08 81 01 51 92 08 81 01 51 92 08 81 01 51 92 08 81 01 51 92 08 81 01 51 92 08 81 01 51 92 08 81 01 51 92 08 81 01 51 92 08 81 01 51 92 08 81 01 51 92 08 81 01 51 92 08 81 01 51 92 08 81 01 51 92 08 81 01 51 92 08 81 01 51 92 08 81 01 51 92 08 81 01 51 92 08 81 01 51 92 08 81 01

14:39:22.881 设备发送:08 01 00 01 00 02 EC 92

14:39:23.885 设备接收:51 92 08 81 01 51 92 08 81 01 51 92 08 81 01 51 92 08 81 01 51 92 08 81 01 51 92 08 81 01 51 92 08 81 01 51 92 08 81 01 51 92 08 81 01 51 92 08 81 01 51 92 08 81 01 51 92 08 81 01 51 92 08 81 01 51 92 08 81 01 51 92 08 81 01 51 92 08 81 01 51 92 08 81 01 51 92 FF FF FF D9 08 81 01 51 82 81 01 51 92 09 03 24 43 64 52 6F 43 64 1D F4 43 64 89 FD 00 00 00 00 00 00 00 00 00 00 00 00 BE D8 93 75 3E 86 A7 F0 C7 25 3C 00 57 A2 09 01 01 00 53 E8 08 03 02

14:39:23.885 设备发送:09 03 40 01 00 12 80 8F

14:39:24.889 设备接收:48 04 22 08 11 00 48 31 48 20 00 64 00 48 C1 D0 10 0C 66 04 02 E0 4B 00 00 00 81 09 03 24 43 64 42 90 43 64 06 A9 43 64 8C 8C 00 00 00 00 00 00 00 00 00 00 00 00 BE F3 33 34 BA 83 12 6F C7 39 8C 00 97 48

14:39:24.919 设备发送:09 01 00 01 00 02 ED 43

14:39:25.918 设备接收:09 01 01 00 53 E8

14:39:25.951 设备发送:08 03 40 01 00 12 81 5E

14:39:26.925 设备接收:00 02 00 02 40 40 00 02 40 0A 06 02 40 54 00 00 00 00 00 00 00 00 00 00 00 00 00 3E 08 10 62 3A 20 C0 88 06 80 98 00 76 22

14:39:26.957 设备发送:08 01 00 01 00 02 EC 92

14:39:27.985 设备发送:08 01 00 01 00 02 EC 92

14:39:28.982 设备接收:08 01 01 00 52 14 08 01 01 00 52 14 08 81 00 90 52 08 81 01 51 92 08 81 01 51 92 08 81 01 51 92 08 81 01 51 92 08 81 01 51 92 08 81 01 51 92 08 81 01 51 92 08 81 01 51 92 08 81 01 51 92 08 81 01 51 92 08 81 01 51 92 08 81 01 51 92 08 81 01 51 92 08 81 01 51 92 08 81 01 51 92 08 81 01 51 92 08 81 01 51 92 08 81 01 51 92 08 81 01 51 92 08 81 01 51 92 08 81 01 51 92 08 81 01 51 92 08 81 01 51 92 08 81 01 51 92 08 81 01 51 92 08 81 01 51 92 08 81 01

14:39:28.990 设备发送:09 03 40 01 00 12 80 8F

14:39:29.989 设备接收:51 92 08 81 01 51 92 08 81 01 51 92 08 81 01 51 92 08 81 01 51 92 08 81 01 51 92 08 81 01 51 92 08 81 01 51 92 08 81 01 51 92 08 81 01 51 92 08 81 01 51 92 08 81 01 51 92 08 81 01 51 92 08 81 01 51 92 08 81 01 51 92 08 81 01 51 92 08 81 01 51 92 08 81 01 51 92 08 81 01 51 92 08 81 01 51 92 08 81 01 51 92 08 81 01 51 92 08 81 01 51 92 08 81 01 51 92 08 81 01 51 92 08 81 01 51 92 08 81 01 51 92 08 81 01 51 92 08 81 01 51 92 08 81 01 51 92 08 81 01

14:39:30.012 设备发送:09 01 00 01 00 02 ED 43

14:39:31.014 设备接收:51 92 08 81 01 51 92 08 81 01 51 92 08 81 01 51 92 08 81 01 51 92 08 81 01 51 92 08 81 01 51 92 08 81 01 51 92 08 81 01 51 92 08 81 01 51 F2 09 03 24 43 64 2C 4A 43 63 F9 9A 43 64 72 6F 00 00 00 00 00 00 00 00 00 00 00 00 BE A1 CA C1 3E 23 D7 0B C6 F6 E0 00 F4 36 09 01 01 00 53 E8

14:39:31.025 设备发送:08 03 40 01 00 12 81 5E

14:39:32.037 设备接收:08 03 24 43 63 EE 15 00 02 40 04 40 04 30 00 00 00 00 00 00 00 00 00 00 00 00 00 00 00 00 00 00 00 00 00 02 4E 24 00 A6 60 46 45 A8 C0 00 27 8A

14:39:32.046 设备发送:08 01 00 01 00 02 EC 92

14:39:33.066 设备接收:00 00 00 81

14:39:33.078 设备发送:09 03 40 01 00 12 80 8F

14:39:34.060 设备接收:09 03 24 43 64 1F BF 43 63 ED 51 43 64 69 38 00 00 00 00 00 00 00 00 00 00 00 00 BE A2 4D D3 3D 54 FD F4 C6 F7 A8 00 9A 3E

14:39:34.100 设备发送:09 01 00 01 00 02 ED 43

14:39:35.083 设备接收:09 01 01 00 53 E8

14:39:35.126 设备发送:08 03 40 01 00 12 81 5E

14:39:36.117 设备接收:00 00 32 20 20 6C 40 60 7C 42 40 26 2D 4C 72 20 22 00 00 40 00 00 06 C6

14:39:36.122 设备发送:08 01 00 01 00 02 EC 92

14:39:37.121 设备接收:00 00 00 81

14:39:37.141 设备发送:09 03 40 01 00 12 80 8F

14:39:38.158 设备接收:09 03 24 43 64 29 7A 43 63 F1 28 43 64 67 AF 00 00 00 00 00 00 00 00 00 00 00 00 BE BC ED 92 3E F2 B0 22 C7 10 24 00 5B 5B

14:39:38.171 设备发送:09 01 00 01 00 02 ED 43

14:39:39.174 设备接收:09 01 01 00 53 E8

14:39:39.197 设备发送:08 03 40 01 00 12 81 5E

14:39:40.204 设备接收:00 02 00 02 42 A0 68 02 42 20 44 02 40 00 82 00 00 00 00 00 00 00 00 00 00 00 00 3C 00 F4 C4 3A 08 10 60 04 80 00 00 54 88

14:39:40.220 设备发送:08 01 00 01 00 02 EC 92

14:39:41.213 设备接收:00 00 00 81

14:39:41.227 设备发送:09 03 40 01 00 12 80 8F

14:39:42.228 设备接收:09 03 24 43 64 37 8E 43 64 08 F6 43 64 82 90 00 00 00 00 00 00 00 00 00 00 00 00 BF 14 BC 6B 3E A2 4D D3 C7 62 F4 00 7F 4E

14:39:42.257 设备发送:09 01 00 01 00 02 ED 43

14:39:43.262 设备接收:09 01 01 00 53 E8

14:39:43.262 设备发送:08 03 40 01 00 12 81 5E

14:39:44.282 设备接收:00 00 32 20 01 06 06 03 A3 A3 03 20 1A 39 00 22 40 AA 00 00 23 03 03 00 98 A0

14:39:44.302 设备发送:08 01 00 01 00 02 EC 92

14:39:45.291 设备接收:08 01 01 00 52 14 08 01 01 00 52 14 08 81 00 90 52 08 81 01 51 92 08 81 01 51 92 08 81 01 51 92 08 81 01 51 92 08 81 01 51 92 08 81 01 51 92 08 81 01 51 92 08 81 01 51 92 08 81 01 51 92 08 81 01 51 92 08 81 01 51 92 08 81 01 51 92 08 81 01 51 92 08 81 01 51 92 08 81 01 51 92 08 81 01 51 92 08 81 01 51 92 08 81 01 51 92 08 81 01 51 92 08 81 01 51 92 08 81 01 51 92 08 81 01 51 92 08 81 01 51 92 08 81 01 51 92 08 81 01 51 92 08 81 01 51 92 08 81 01

14:39:45.308 设备发送:09 03 40 01 00 12 80 8F

14:39:46.316 设备接收:51 92 08 81 01 51 92 08 81 01 51 92 08 81 01 51 92 08 81 01 51 92 08 81 01 51 92 08 81 01 51 92 08 81 01 51 92 08 81 01 51 92 08 81 01 51 92 08 81 01 51 92 08 81 01 51 92 08 81 01 51 92 08 81 01 51 92 08 81 01 51 92 08 81 01 51 92 08 81 01 51 92 08 81 01 51 92 08 81 01 51 92 08 81 01 51 92 08 81 01 51 92 08 81 01 51 92 08 81 01 51 92 08 81 01 51 92 08 81 01 51 92 08 81 01 51 92 08 81 01 51 92

14:39:46.331 设备发送:09 01 00 01 00 02 ED 43

14:39:47.339 设备接收:09 01 01 00 53 E8

14:39:47.359 设备发送:08 03 40 01 00 12 81 5E

14:39:48.343 设备接收:00 00 32 03 4A DA 06 03 B0 B0 40 36 24 03 4A 58 00 00 35 42 00 26 40 02 00 04 00

14:39:48.362 设备发送:08 01 00 01 00 02 EC 92

14:39:49.367 设备接收:00 00 00 50 F0

14:39:49.377 设备发送:09 03 40 01 00 12 80 8F

14:39:50.396 设备接收:09 03 24 43 64 32 B1 43 63 FB 65 43 64 64 9C 00 00 00 00 00 00 00 00 00 00 00 00 BE 21 CA C1 3E 21 CA C1 C6 76 E0 00 4D D9

14:39:50.424 设备发送:09 01 00 01 00 02 ED 43

14:39:51.419 设备接收:09 01 01 00 53 E8

14:39:51.424 设备发送:08 03 40 01 00 12 81 5E

14:39:52.438 设备接收:00 00 20 00 50 00 40 40 F0 0C 40 84 04 12 0E 44 70 34 01 C0 C1 01 00 00 00 69 CE

14:39:52.454 设备发送:08 01 00 01 00 02 EC 92

14:39:53.441 设备接收:00 00 00 50 F0

14:39:53.480 设备发送:09 03 40 01 00 12 80 8F

14:39:54.460 设备接收:09 03 24 43 64 2A 80 43 63 F5 82 43 64 6F 1B 00 00 00 00 00 00 00 00 00 00 00 00 BE F3 33 34 3D D7 0A 3E C7 39 8C 00 69 3A

14:39:54.477 设备发送:09 01 00 01 00 02 ED 43

14:39:55.475 设备接收:09 01 01 00 53 E8

14:39:55.526 设备发送:08 03 40 01 00 12 81 5E

14:39:56.523 设备接收:08 03 40 00 02 44 05 18 82 01 08 22 82 08 00 00 00 00 00 00 00 00 00 00 00 00 00 00 18 20 60 00 30 01 10 00 00 0A 80 00 FA 95 08 83 01 50 F2

14:39:56.545 设备发送:08 01 00 01 00 02 EC 92

14:39:57.533 设备接收:08 01 01 40 00 52 14 08 81 01 51 92 08 81 01 51 92 08 81 01 51 92 08 81 01 51 92 08 81 01 51 92 08 81 01 51 92 08 81 01 51 92 08 81 01 51 92 08 81 01 51 92 08 81 01 51 92

14:39:57.553 设备发送:09 03 40 01 00 12 80 8F

14:39:58.573 设备发送:09 01 00 01 00 02 ED 43

14:39:59.571 设备接收:08 81 01 51 92 08 81 01 51 92 08 81 01 51 92 08 81 01 51 92 08 81 01 51 92 08 81 01 51 92 08 81 01 51 92 08 81 01 51 92 08 81 01 51 92 08 81 01 51 92 08 81 01 51 92 08 81 01 51 92 08 81 01 51 92 08 81 01 51 92 09 01 01 00 53 E8

14:39:59.596 设备发送:08 03 40 01 00 12 81 5E

14:40:00.577 设备接收:08 00 24 00 32 10 82 00 26 09 41 20 06 08 2C 06 52 CA CB B1 21 40 A4 00 00 95 FD

14:40:00.614 设备发送:08 01 00 01 00 02 EC 92

14:40:01.615 设备接收:08 01 01 00 52 14 08 01 01 00 52 14 08 81 00 90 52 08 81 01 51 92 08 81 01 51 92 08 81 01 51 92 08 81 01 51 92 08 81 01 51 92 08 81 01 51 92 08 81 01 51 92 08 81 01 51 92 08 81 01 51 92 08 81 01 51 92 08 81 01 51 92 08 81 01 51 92 08 81 01 51 92 08 81 01 51 92 08 81 01 51 92 08 81 01 51 92 08 81 01 51 92 08 81 01 51 92 08 81 01 51 92 08 81 01 51 92 08 81 01 51 92 08 81 01 51 92 08 81 01 51 92 08 81 01 51 92 08 81 01 51 92 08 81 01 51 92 08 81 01

14:40:01.630 设备发送:09 03 40 01 00 12 80 8F

14:40:02.643 设备接收:51 92 08 81 01 51 92 08 81 01 51 92 08 81 01 51 92 08 81 01 51 92 08 81 01 51 92 08 81 01 51 92 08 81 01 51 92 08 81 01 51 92 08 81 01 51 92 08 81 01 51 92 08 81 01 51 92 08 81 01 51 92 08 81 01 51 92 08 81 01 51 92 08 81 01 51 92 08 81 01 51 92 08 81 01 51 92 09 03 24 43 64 72 6F 43 64 48 73 43 64 A4 5B 00 00 00 00 00 00 00 00 00 00 00 00 BF 2F 5C 2A 3D 54 FD F4 C7 85 CA 00 12 8B

14:40:02.661 设备发送:09 01 00 01 00 02 ED 43

14:40:03.668 设备接收:09 01 01 00 53 E8

14:40:03.676 设备发送:08 03 40 01 00 12 81 5E

14:40:04.665 设备接收:08 03 24 43 64 47 2C 43 64 30 21 43 64 71 EC 00 00 00 00 00 00 00 00 00 00 00 00 3E A1 CA C1 3E 21 CA C1 46 F6 E0 00 00 48 43 64 30 E6 43 63 FD 30 43 64 4E 15 00 00 00 00 00 00 00 00 00 00 00 00 BD 59 16 88 BE 20 C4 9C C5 A5 A0 00 28 41

14:40:04.696 设备发送:08 01 00 01 00 02 EC 92

14:40:05.721 设备发送:08 01 00 01 00 02 EC 92

14:40:06.716 设备接收:08 01 01 00 52 14 08 81 00 90 52 08 81 01 51 92 08 81 01 51 92 08 81 01 51 92 08 81 01 51 92 08 81 01 51 92 08 81 01 51 92 08 81 01 51 92 08 81 01 51 92 08 81 01 51 92 08 81 01 51 92 08 81 01 51 92 08 81 01 51 92 08 81 01 51 92 08 81 01 51 92 08 81 01 51 92 08 81 01 51 92 08 81 01 51 92 08 81 01 51 92 08 81 01 51 92 08 81 01 51 92 08 81 01 51 92 08 81 01 51 92 08 81 01 51 92 08 81 01 51 92 08 81 01 51 92 08 81 01 51 92 08 81 01 51 92 08 81 01 51

14:40:06.732 设备发送:09 03 40 01 00 12 80 8F

14:40:07.718 设备接收:92 08 81 01 51 92 08 81 01 51 92 08 81 01 51 92 08 81 01 51 92 08 81 01 51 92 08 81 01 51 92 08 81 01 51 92 08 81 01 51 92 08 81 01 51 92 08 81 01 51 92 08 81 01 51 92 08 81 01 51 92 08 81 01 51 92 08 81 01 51 92 08 81 01 51 92 08 81 01 51 92 08 81 01 51 92 08 81 01 51 92 08 81 01 51 92 08 81 01 51 92 08 81 01 51 92 08 81 01 51 92 08 81 01 51 92 08 81 01 51 92 08 81 01 51 92 08 81 01 51 92 08 81 01 51 92 08 81 01 51 92 08 81 01 51 92 08 81 01 51

14:40:07.754 设备发送:09 01 00 01 00 02 ED 43

14:40:08.753 设备接收:92 08 81 01 51 92 08 81 01 51 92 08 81 01 51 92 08 81 01 51 92 08 81 01 51 92 08 01 01 00 52 14 08 81 00 90 52 08 81 01 51 92 08 81 01 51 92 08 81 01 51 92 08 81 01 51 92 08 81 01 51 92 08 81 01 51 92 08 81 01 51 92 08 81 01 51 92 08 81 01 51 92 08 81 01 51 92 08 81 01 51 92 08 81 01 51 92 08 81 01 51 92 08 81 01 51 92 08 81 01 51 92 08 81 01 51 92 08 81 01 51 92 08 81 01 51 92 08 81 01 51 92 08 81 01 51 92 08 81 01 51 92 08 81 01 51 92 08 81 01

14:40:08.758 设备发送:08 03 40 01 00 12 81 5E

14:40:09.779 设备接收:51 92 08 81 01 51 92 08 81 01 51 92 08 81 01 51 92 08 81 01 51 92 08 81 01 51 92 08 81 01 51 92 08 81 01 51 92 08 81 01 51 92 08 81 01 51 92 08 81 01 51 92 08 81 01 51 92 08 81 01 51 92 08 81 01 51 92 08 81 01 51 92 08 81 01 51 92 08 81 01 51 92 08 81 01 51 92 08 81 01 51 92 08 81 01 51 92 08 81 01 51 92 08 81 01 51 92 08 81 01 51 92 08 81 01 51 92 08 81 01 51 92 08 81 01 51 92 08 81 01 51 92 08 81 01 51 92 08 81 01 51 92 08 81 01 51 92 08 81 01

14:40:09.803 设备发送:08 01 00 01 00 02 EC 92

14:40:10.779 设备接收:51 92 08 81 01 51 92 08 81 01 51 92 F9 FF 7F 09 81 01 00 52 09 01 01 00 53 E8 08 00 00 00 00 40 00 00 00 40 00 02 00 00 00 00 00 00 00 00 00 00 00 00 00 00 00 00 14 E0 20 20 18 00 D0 C0 02 00 00 00 02 9B 08 00 00 00 F1

14:40:10.812 设备发送:09 03 40 01 00 12 80 8F

14:40:11.814 设备接收:09 03 24 43 64 76 05 43 64 45 E4 43 64 9B E8 00 00 00 00 00 00 00 00 00 00 00 00 BE D8 93 75 3E BC 6A 80 C7 25 3C 00 F8 63

14:40:11.833 设备发送:09 01 00 01 00 02 ED 43

14:40:12.840 设备发送:08 03 40 01 00 12 81 5E

14:40:13.836 设备接收:08 03 24 43 64 2C 4A 43 00 06 48 02 40 00 02 00 00 00 00 00 00 00 00 00 00 00 00 00 00 00 00 00 00 00 00 44 20 50 00 70 A0 0A 3E 47 10 24 00 1D E9

14:40:13.891 设备发送:08 01 00 01 00 02 EC 92

14:40:14.866 设备接收:00 00 00 50 E0

14:40:14.880 设备发送:09 03 40 01 00 12 80 8F

14:40:15.898 设备接收:09 03 24 43 64 7E 36 43 64 49 FD 43 64 98 D6 00 00 00 00 00 00 00 00 00 00 00 00 BE 58 10 63 3E F3 33 34 C6 A4 D8 00 C7 77

14:40:15.910 设备发送:09 01 00 01 00 02 ED 43

14:40:16.894 设备接收:09 01 01 00 53 E8

14:40:16.938 设备发送:08 03 40 01 00 12 81 5E

14:40:17.926 设备接收:08 00 00 08 80 60 A8 08 00 04 00 00 30 50 00 00 00 10 38 10 00 00 00 00 24 50

14:40:17.958 设备发送:08 01 00 01 00 02 EC 92

14:40:18.946 设备接收:00 00 00 50 E0

14:40:18.966 设备发送:09 03 40 01 00 12 80 8F

14:40:19.971 设备接收:09 03 24 43 64 90 E6 43 64 5D 71 43 64 98 53 00 00 00 00 00 00 00 00 00 00 00 00 BE D8 93 75 3D D7 0A 3E C7 25 3C 00 8A CB

14:40:19.995 设备发送:09 01 00 01 00 02 ED 43

14:40:20.980 设备接收:09 01 01 00 53 E8

14:40:21.019 设备发送:08 03 40 01 00 12 81 5E

14:40:22.015 设备接收:00 00 00 00 00 00 60 00 00 00 0C 00 00 00 00 00 00 00 00 00 00 00 00 00 00 00 00 38 00 00 00 00 00 00 00 00 08 80 00 10 00

14:40:22.043 设备发送:08 01 00 01 00 02 EC 92

14:40:23.018 设备接收:00 00 00 50 E0

14:40:23.060 设备发送:09 03 40 01 00 12 80 8F

14:40:24.053 设备接收:09 03 24 43 64 55 C3 43 64 31 AB 43 64 64 19 00 00 00 00 00 00 00 00 00 00 00 00 BF 21 CA C1 3E 86 24 DE C7 76 E0 00 28 DC

14:40:24.064 设备发送:09 01 00 01 00 02 ED 43

14:40:25.057 设备接收:09 01 01 00 53 E8

14:40:25.099 设备发送:08 03 40 01 00 12 81 5E

14:40:26.093 设备接收:00 00 00 00 00 80 04 00 00 10 80 00 00 00 08 00 00 00 00 00 00 00 00 00 00 00 00 38 00 00 04 38 00 00 00 00 44 00 00 00 C0

14:40:26.112 设备发送:08 01 00 01 00 02 EC 92

14:40:27.099 设备接收:00 00 00 50 E0

14:40:27.140 设备发送:09 03 40 01 00 12 80 8F

14:40:28.136 设备接收:09 03 24 43 64 75 C3 43 64 4F 9E 43 64 7B E8 00 00 00 00 00 00 00 00 00 00 00 00 BF 07 6C 8C 3E D7 8D 51 C7 4E A4 00 DD 90

14:40:28.156 设备发送:09 01 00 01 00 02 ED 43

14:40:29.137 设备接收:09 01 01 00 53 E8

14:40:29.172 设备发送:08 03 40 01 00 12 81 5E

14:40:30.182 设备接收:00 00 00 00 00 00 00 00 00 00 00 00 00 80 18 00 00 00 00 00 00 00 00 00 00 00 00 38 08 00 08 30 00 00 00 00 00 00 00 00 00

14:40:30.203 设备发送:08 01 00 01 00 02 EC 92

14:40:31.188 设备接收:00 00 00 50 E0

14:40:31.218 设备发送:09 03 40 01 00 12 80 8F

14:40:32.201 设备接收:09 03 24 43 64 8D 0F 43 64 56 46 43 64 99 17 00 00 00 00 00 00 00 00 00 00 00 00 BE F3 33 34 3E 86 24 DE C7 39 8C 00 33 6C

14:40:32.213 设备发送:09 01 00 01 00 02 ED 43

14:40:33.219 设备接收:09 01 01 00 53 E8

14:40:33.256 设备发送:08 03 40 01 00 12 81 5E

14:40:34.249 设备接收:08 03 24 43 64 8B 86 43 64 62 4F 43 64 9A 5F 00 00 00 00 00 00 00 00 00 00 00 00 3E 86 24 DE BD D4 FD F4 46 CC B0 00 84 22

14:40:34.275 设备发送:08 01 00 01 00 02 EC 92

14:40:35.273 设备发送:09 03 40 01 00 12 80 8F

14:40:36.288 设备接收:09 03 24 43 64 A1 07 43 64 58 94 43 64 AD D4 00 00 00 00 00 00 00 00 00 00 00 00 BF 2F 9D B3 BD 59 16 88 C7 85 FC 00 0F 24

14:40:36.304 设备发送:09 01 00 01 00 02 ED 43

14:40:37.295 设备接收:09 01 01 00 53 E8

14:40:37.334 设备发送:08 03 40 01 00 12 81 5E

14:40:38.346 设备接收:08 03 24 43 64 78 53 43 64 4C 09 43 64 8A C1 00 00 00 00 00 00 00 00 00 00 00 00 3E D8 10 63 3E 23 D7 0B 47 24 D8 00 5C 3E

14:40:39.186 设备接收:08 03 24 43 64 78 53 43

14:40:39.351 设备接收:08 01 01 00 52 14

14:40:39.366 设备发送:09 03 40 01 00 12 80 8F

14:40:39.726 设备发送:09 03 40 01 00 12

14:40:40.375 设备接收:09 03 24 43 64 72 B1 43 64 35 40 43 64 75 82 00 00 00 00 00 00 00 00 00 00 00 00 BE 87 2B 02 3D 54 FD F4 C6 CE 40 00 88 54

14:40:40.391 设备发送:09 01 00 01 00 02 ED 43

14:40:41.405 设备接收:09 01 01 00 53 E8

14:40:41.427 设备发送:08 03 40 01 00 12 81 5E

14:40:42.400 设备接收:08 03 24 43 64 69 38 43 64 41 CB 43 64 88 B5 00 00 00 00 00 00 00 00 00 00 00 00 3D D7 0A 3E 00 00 00 00 46 24 10 00 48 53

14:40:42.442 设备发送:08 01 00 01 00 02 EC 92

14:40:43.451 设备接收:08 01 01 00 52 14

14:40:43.451 设备发送:09 03 40 01 00 12 80 8F

14:40:44.454 设备接收:09 03 24 43 64 66 67 43 64 1F BF 43 64 82 D2 00 00 00 00 00 00 00 00 00 00 00 00 BE D7 8D 51 3D D4 FD F4 C7 24 74 00 47 17

14:40:44.475 设备发送:09 01 00 01 00 02 ED 43

14:40:45.466 设备接收:09 01 01 00 53 E8

14:40:45.475 设备发送:08 03 40 01 00 12 81 5E

14:40:46.493 设备接收:08 03 24 43 64 48 F6 43 64 18 53 43 64 66 26 00 00 00 00 00 00 00 00 00 00 00 00 3E 57 0A 3E BA 83 12 6F 46 A4 10 00 60 33

14:40:46.504 设备发送:08 01 00 01 00 02 EC 92

14:40:47.513 设备接收:08 01 01 00 52 14

14:40:47.527 设备发送:09 03 40 01 00 12 80 8F

14:40:48.535 设备接收:09 03 24 43 64 78 D6 43 64 37 0B 43 64 93 75 00 00 00 00 00 00 00 00 00 00 00 00 BE BD 70 A4 3E A2 4D D3 C7 10 88 00 93 0E

14:40:48.550 设备发送:09 01 00 01 00 02 ED 43

14:40:49.551 设备接收:09 01 01 00 53 E8

14:40:49.563 设备发送:08 03 40 01 00 12 81 5E

14:40:50.553 设备接收:08 03 24 43 64 69 38 43 64 2E 57 43 64 8C CE 00 00 00 00 00 00 00 00 00 00 00 00 3E A1 CA C1 00 00 00 00 46 F6 E0 00 07 FE

14:40:50.595 设备发送:08 01 00 01 00 02 EC 92

14:40:51.585 设备接收:08 01 01 00 52 14

14:40:51.631 设备发送:09 03 40 01 00 12 80 8F

14:40:52.608 设备接收:09 03 24 43 64 7A 1D 43 64 20 01 43 64 96 46 00 00 00 00 00 00 00 00 00 00 00 00 BF 07 2B 02 3D D7 0A 3E C7 4E 40 00 18 89

14:40:52.626 设备发送:09 01 00 01 00 02 ED 43

14:40:53.616 设备接收:09 01 01 00 53 E8

14:40:53.651 设备发送:08 03 40 01 00 12 81 5E

14:40:54.649 设备接收:08 03 24 43 64 6C CE 43 64 3B A7 43 64 92 6F 00 00 00 00 00 00 00 00 00 00 00 00 3E 86 24 DE 00 00 00 00 46 CC B0 00 69 F7

14:40:54.673 设备发送:08 01 00 01 00 02 EC 92

14:40:55.670 设备接收:08 01 01 00 52 14

14:40:55.688 设备发送:09 03 40 01 00 12 80 8F

14:40:56.686 设备接收:09 03 24 43 64 4F 5D 43 64 05 E4 43 64 71 AB 00 00 00 00 00 00 00 00 00 00 00 00 BE D8 93 75 3E 58 10 63 C7 25 3C 00 0E A9

14:40:56.708 设备发送:09 01 00 01 00 02 ED 43

14:40:57.719 设备接收:09 01 01 00 53 E8 81 5E

14:40:58.724 设备接收:08 03 24 43 64 44 9C 43 64 18 D6 43 64 6E 15 00 00 00 00 00 00 00 00 00 00 00 00 3F 22 0C 4A BD 59 16 88 47 77 44 00 61 38

14:40:58.736 设备发送:08 01 00 01 00 02 EC 92

14:40:58.937 设备接收:09 01 01 00 53 E8

14:40:59.731 设备接收:08 01 01 00 52 14

14:40:59.763 设备发送:09 03 40 01 00 12 80 8F

14:41:00.745 设备接收:09 03 24 43 64 30 E6 43 63 F0 63 43 64 56 C9 00 00 00 00 00 00 00 00 00 00 00 00 BF 07 2B 02 BA 83 12 6F C7 4E 40 00 9B 8D

14:41:00.785 设备发送:09 01 00 01 00 02 ED 43

14:41:01.780 设备接收:09 01 01 00 53 E8

14:41:01.803 设备发送:08 03 40 01 00 12 81 5E

14:41:02.791 设备接收:08 03 24 43 64 78 11 43 64 50 E6 43 64 9E FB 00 00 00 00 00 00 00 00 00 00 00 00 3E F2 B0 22 BD D7 0A 3E 47 39 28 00 59 BD

14:41:02.808 设备发送:08 01 00 01 00 02 EC 92

14:41:03.816 设备接收:08 01 01 00 52 14

14:41:03.830 设备发送:09 03 40 01 00 12 80 8F

14:41:04.823 设备接收:09 03 24 43 64 75 82 43 64 39 59 43 64 8C 4A 00 00 00 00 00 00 00 00 00 00 00 00 BE D8 93 75 3D D9 16 88 C7 25 3C 00 2B 73

14:41:04.869 设备发送:09 01 00 01 00 02 ED 43

14:41:05.854 设备接收:09 01 01 00 53 E8

14:41:05.887 设备发送:08 03 40 01 00 12 81 5E

14:41:06.878 设备接收:08 03 24 43 64 5E 77 43 64 43 13 43 64 6D 51 00 00 00 00 00 00 00 00 00 00 00 00 3E A1 47 AF 3E A1 47 AF 46 F6 18 00 26 27

14:41:06.883 设备发送:08 01 00 01 00 02 EC 92

14:41:07.896 设备接收:08 01 01 00 52 14

14:41:07.913 设备发送:09 03 40 01 00 12 80 8F

14:41:08.912 设备接收:09 03 24 43 64 6B 03 43 64 2D 92 43 64 6D 92 00 00 00 00 00 00 00 00 00 00 00 00 BF 07 2B 02 BE 87 AE 15 C7 4E 40 00 C2 BE

14:41:08.933 设备发送:09 01 00 01 00 02 ED 43

14:41:09.63900

14:41:11.69100

14:41:13.74700

14:41:15.79900

